# MHz           S          MA           R         50
!-----------------------------------------------------------------------------
!Freq             MagS11           AngS11           MagS21           AngS21           MagS12           AngS12           MagS22           AngS22
 1                0.00228294216    15.9033856       0.997804633     -0.0359209696     0.997804633     -0.0359209696     0.00228294216    15.9033856      
 1.01             0.00228610292    16.0438371       0.99780314      -0.0362801251     0.99780314      -0.0362801251     0.00228610292    16.0438371      
 1.0201           0.00228930209    16.1853495       0.997801638     -0.0366428713     0.997801638     -0.0366428713     0.00228930209    16.1853495      
 1.030301         0.00229254024    16.3279267       0.99780013      -0.0370092441     0.99780013      -0.0370092441     0.00229254024    16.3279267      
 1.04060401       0.00229581798    16.4715727       0.997798614     -0.0373792798     0.997798614     -0.0373792798     0.00229581798    16.4715727      
 1.05101005       0.00229913591    16.6162912       0.99779709      -0.037753015      0.99779709      -0.037753015      0.00229913591    16.6162912      
 1.06152015       0.00230249464    16.7620859       0.997795558     -0.0381304867     0.997795558     -0.0381304867     0.00230249464    16.7620859      
 1.07213535       0.00230589479    16.9089605       0.997794019     -0.0385117322     0.997794019     -0.0385117322     0.00230589479    16.9089605      
 1.08285671       0.002309337      17.0569185       0.997792472     -0.0388967893     0.997792472     -0.0388967893     0.002309337      17.0569185      
 1.09368527       0.0023128219     17.2059633       0.997790917     -0.0392856961     0.997790917     -0.0392856961     0.0023128219     17.2059633      
 1.10462213       0.00231635015    17.3560982       0.997789354     -0.0396784909     0.997789354     -0.0396784909     0.00231635015    17.3560982      
 1.11566835       0.0023199224     17.5073264       0.997787784     -0.0400752129     0.997787784     -0.0400752129     0.0023199224     17.5073264      
 1.12682503       0.00232353933    17.6596511       0.997786206     -0.0404759011     0.997786206     -0.0404759011     0.00232353933    17.6596511      
 1.13809328       0.00232720162    17.8130753       0.997784619     -0.0408805952     0.997784619     -0.0408805952     0.00232720162    17.8130753      
 1.14947421       0.00233090995    17.9676017       0.997783025     -0.0412893352     0.997783025     -0.0412893352     0.00233090995    17.9676017      
 1.16096896       0.00233466504    18.1232333       0.997781423     -0.0417021617     0.997781423     -0.0417021617     0.00233466504    18.1232333      
 1.17257864       0.00233846759    18.2799726       0.997779812     -0.0421191154     0.997779812     -0.0421191154     0.00233846759    18.2799726      
 1.18430443       0.00234231832    18.4378222       0.997778194     -0.0425402377     0.997778194     -0.0425402377     0.00234231832    18.4378222      
 1.19614748       0.00234621796    18.5967844       0.997776567     -0.0429655701     0.997776567     -0.0429655701     0.00234621796    18.5967844      
 1.20810895       0.00235016728    18.7568615       0.997774932     -0.0433951548     0.997774932     -0.0433951548     0.00235016728    18.7568615      
 1.22019004       0.002354167      18.9180557       0.997773289     -0.0438290343     0.997773289     -0.0438290343     0.002354167      18.9180557      
 1.23239194       0.00235821791    19.080369        0.997771638     -0.0442672515     0.997771638     -0.0442672515     0.00235821791    19.080369       
 1.24471586       0.00236232078    19.2438031       0.997769978     -0.0447098497     0.997769978     -0.0447098497     0.00236232078    19.2438031      
 1.25716302       0.0023664764     19.4083599       0.99776831      -0.0451568728     0.99776831      -0.0451568728     0.0023664764     19.4083599      
 1.26973465       0.00237068557    19.5740409       0.997766634     -0.0456083651     0.997766634     -0.0456083651     0.00237068557    19.5740409      
 1.282432         0.0023749491     19.7408475       0.997764949     -0.046064371      0.997764949     -0.046064371      0.0023749491     19.7408475      
 1.29525631       0.00237926781    19.9087809       0.997763256     -0.0465249359     0.997763256     -0.0465249359     0.00237926781    19.9087809      
 1.30820888       0.00238364254    20.0778424       0.997761554     -0.0469901053     0.997761554     -0.0469901053     0.00238364254    20.0778424      
 1.32129097       0.00238807415    20.2480327       0.997759843     -0.0474599251     0.997759843     -0.0474599251     0.00238807415    20.2480327      
 1.33450388       0.00239256348    20.4193528       0.997758124     -0.0479344419     0.997758124     -0.0479344419     0.00239256348    20.4193528      
 1.34784892       0.00239711141    20.5918033       0.997756397     -0.0484137026     0.997756397     -0.0484137026     0.00239711141    20.5918033      
 1.3613274        0.00240171882    20.7653845       0.99775466      -0.0488977547     0.99775466      -0.0488977547     0.00240171882    20.7653845      
 1.37494068       0.00240638661    20.9400969       0.997752915     -0.049386646      0.997752915     -0.049386646      0.00240638661    20.9400969      
 1.38869009       0.0024111157     21.1159404       0.997751161     -0.0498804249     0.997751161     -0.0498804249     0.0024111157     21.1159404      
 1.40257699       0.002415907      21.292915        0.997749398     -0.0503791403     0.997749398     -0.0503791403     0.002415907      21.292915       
 1.41660276       0.00242076144    21.4710205       0.997747626     -0.0508828415     0.997747626     -0.0508828415     0.00242076144    21.4710205      
 1.43076878       0.00242567998    21.6502563       0.997745845     -0.0513915784     0.997745845     -0.0513915784     0.00242567998    21.6502563      
 1.44507647       0.00243066358    21.830622        0.997744055     -0.0519054012     0.997744055     -0.0519054012     0.00243066358    21.830622       
 1.45952724       0.00243571321    22.0121166       0.997742257     -0.0524243609     0.997742257     -0.0524243609     0.00243571321    22.0121166      
 1.47412251       0.00244082987    22.1947391       0.997740449     -0.0529485088     0.997740449     -0.0529485088     0.00244082987    22.1947391      
 1.48886373       0.00244601454    22.3784884       0.997738632     -0.0534778966     0.997738632     -0.0534778966     0.00244601454    22.3784884      
 1.50375237       0.00245126825    22.5633629       0.997736806     -0.0540125769     0.997736806     -0.0540125769     0.00245126825    22.5633629      
 1.51878989       0.00245659202    22.7493611       0.99773497      -0.0545526026     0.99773497      -0.0545526026     0.00245659202    22.7493611      
 1.53397779       0.00246198691    22.9364811       0.997733125     -0.0550980269     0.997733125     -0.0550980269     0.00246198691    22.9364811      
 1.54931757       0.00246745396    23.1247208       0.997731271     -0.055648904      0.997731271     -0.055648904      0.00246745396    23.1247208      
 1.56481075       0.00247299424    23.3140781       0.997729408     -0.0562052883     0.997729408     -0.0562052883     0.00247299424    23.3140781      
 1.58045885       0.00247860885    23.5045504       0.997727535     -0.0567672348     0.997727535     -0.0567672348     0.00247860885    23.5045504      
 1.59626344       0.00248429888    23.696135        0.997725653     -0.0573347993     0.997725653     -0.0573347993     0.00248429888    23.696135       
 1.61222608       0.00249006545    23.888829        0.997723761     -0.0579080377     0.997723761     -0.0579080377     0.00249006545    23.888829       
 1.62834834       0.00249590968    24.0826293       0.997721859     -0.0584870068     0.997721859     -0.0584870068     0.00249590968    24.0826293      
 1.64463182       0.00250183271    24.2775324       0.997719948     -0.059071764      0.997719948     -0.059071764      0.00250183271    24.2775324      
 1.66107814       0.00250783572    24.4735347       0.997718027     -0.0596623671     0.997718027     -0.0596623671     0.00250783572    24.4735347      
 1.67768892       0.00251391986    24.6706324       0.997716097     -0.0602588744     0.997716097     -0.0602588744     0.00251391986    24.6706324      
 1.69446581       0.00252008633    24.8688215       0.997714157     -0.0608613451     0.997714157     -0.0608613451     0.00252008633    24.8688215      
 1.71141047       0.00252633633    25.0680975       0.997712206     -0.0614698387     0.997712206     -0.0614698387     0.00252633633    25.0680975      
 1.72852457       0.00253267109    25.2684559       0.997710246     -0.0620844154     0.997710246     -0.0620844154     0.00253267109    25.2684559      
 1.74580982       0.00253909182    25.4698919       0.997708276     -0.062705136      0.997708276     -0.062705136      0.00253909182    25.4698919      
 1.76326792       0.0025455998     25.6724005       0.997706297     -0.063332062      0.997706297     -0.063332062      0.0025455998     25.6724005      
 1.7809006        0.00255219627    25.8759762       0.997704307     -0.0639652554     0.997704307     -0.0639652554     0.00255219627    25.8759762      
 1.7987096        0.00255888252    26.0806136       0.997702306     -0.0646047788     0.997702306     -0.0646047788     0.00255888252    26.0806136      
 1.8166967        0.00256565985    26.2863069       0.997700296     -0.0652506954     0.997700296     -0.0652506954     0.00256565985    26.2863069      
 1.83486367       0.00257252957    26.4930498       0.997698276     -0.0659030693     0.997698276     -0.0659030693     0.00257252957    26.4930498      
 1.8532123        0.00257949301    26.7008363       0.997696245     -0.0665619649     0.997696245     -0.0665619649     0.00257949301    26.7008363      
 1.87174443       0.00258655152    26.9096595       0.997694204     -0.0672274474     0.997694204     -0.0672274474     0.00258655152    26.9096595      
 1.89046187       0.00259370645    27.1195127       0.997692152     -0.0678995826     0.997692152     -0.0678995826     0.00259370645    27.1195127      
 1.90936649       0.00260095919    27.3303888       0.997690091     -0.0685784371     0.997690091     -0.0685784371     0.00260095919    27.3303888      
 1.92846015       0.00260831113    27.5422804       0.997688018     -0.069264078      0.997688018     -0.069264078      0.00260831113    27.5422804      
 1.94774475       0.00261576367    27.7551798       0.997685935     -0.0699565732     0.997685935     -0.0699565732     0.00261576367    27.7551798      
 1.9672222        0.00262331826    27.9690792       0.997683842     -0.0706559911     0.997683842     -0.0706559911     0.00262331826    27.9690792      
 1.98689442       0.00263097632    28.1839703       0.997681738     -0.071362401      0.997681738     -0.071362401      0.00263097632    28.1839703      
 2.00676337       0.00263873933    28.3998447       0.997679623     -0.0720758726     0.997679623     -0.0720758726     0.00263873933    28.3998447      
 2.026831         0.00264660875    28.6166937       0.997677497     -0.0727964768     0.997677497     -0.0727964768     0.00264660875    28.6166937      
 2.04709931       0.00265458609    28.8345083       0.997675361     -0.0735242846     0.997675361     -0.0735242846     0.00265458609    28.8345083      
 2.06757031       0.00266267286    29.0532793       0.997673213     -0.0742593681     0.997673213     -0.0742593681     0.00266267286    29.0532793      
 2.08824601       0.00267087058    29.2729971       0.997671055     -0.0750018001     0.997671055     -0.0750018001     0.00267087058    29.2729971      
 2.10912847       0.00267918081    29.4936519       0.997668886     -0.0757516539     0.997668886     -0.0757516539     0.00267918081    29.4936519      
 2.13021975       0.0026876051     29.7152337       0.997666705     -0.0765090038     0.997666705     -0.0765090038     0.0026876051     29.7152337      
 2.15152195       0.00269614504    29.9377321       0.997664514     -0.0772739246     0.997664514     -0.0772739246     0.00269614504    29.9377321      
 2.17303717       0.00270480222    30.1611365       0.997662311     -0.0780464922     0.997662311     -0.0780464922     0.00270480222    30.1611365      
 2.19476754       0.00271357827    30.3854361       0.997660097     -0.0788267828     0.997660097     -0.0788267828     0.00271357827    30.3854361      
 2.21671522       0.00272247482    30.6106197       0.997657872     -0.0796148736     0.997657872     -0.0796148736     0.00272247482    30.6106197      
 2.23888237       0.00273149351    30.8366759       0.997655635     -0.0804108428     0.997655635     -0.0804108428     0.00273149351    30.8366759      
 2.26127119       0.00274063601    31.063593        0.997653387     -0.0812147689     0.997653387     -0.0812147689     0.00274063601    31.063593       
 2.2838839        0.00274990403    31.291359        0.997651127     -0.0820267314     0.997651127     -0.0820267314     0.00274990403    31.291359       
 2.30672274       0.00275929925    31.5199618       0.997648856     -0.0828468109     0.997648856     -0.0828468109     0.00275929925    31.5199618      
 2.32978997       0.0027688234     31.7493889       0.997646573     -0.0836750883     0.997646573     -0.0836750883     0.0027688234     31.7493889      
 2.35308787       0.00277847823    31.9796276       0.997644279     -0.0845116455     0.997644279     -0.0845116455     0.00277847823    31.9796276      
 2.37661875       0.00278826549    32.2106647       0.997641972     -0.0853565654     0.997641972     -0.0853565654     0.00278826549    32.2106647      
 2.40038494       0.00279818697    32.4424872       0.997639654     -0.0862099316     0.997639654     -0.0862099316     0.00279818697    32.4424872      
 2.42438879       0.00280824445    32.6750815       0.997637324     -0.0870718284     0.997637324     -0.0870718284     0.00280824445    32.6750815      
 2.44863267       0.00281843975    32.9084338       0.997634983     -0.0879423411     0.997634983     -0.0879423411     0.00281843975    32.9084338      
 2.473119         0.0028287747     33.1425302       0.997632629     -0.0888215558     0.997632629     -0.0888215558     0.0028287747     33.1425302      
 2.49785019       0.00283925116    33.3773563       0.997630263     -0.0897095595     0.997630263     -0.0897095595     0.00283925116    33.3773563      
 2.52282869       0.002849871      33.6128977       0.997627884     -0.09060644       0.997627884     -0.09060644       0.002849871      33.6128977      
 2.54805698       0.00286063609    33.8491396       0.997625494     -0.0915122861     0.997625494     -0.0915122861     0.00286063609    33.8491396      
 2.57353755       0.00287154836    34.086067        0.997623091     -0.0924271874     0.997623091     -0.0924271874     0.00287154836    34.086067       
 2.59927293       0.00288260972    34.3236648       0.997620676     -0.0933512343     0.997620676     -0.0933512343     0.00288260972    34.3236648      
 2.62526565       0.00289382212    34.5619175       0.997618249     -0.0942845183     0.997618249     -0.0942845183     0.00289382212    34.5619175      
 2.65151831       0.00290518752    34.8008093       0.997615809     -0.0952271316     0.997615809     -0.0952271316     0.00290518752    34.8008093      
 2.67803349       0.0029167079     35.0403246       0.997613356     -0.0961791676     0.997613356     -0.0961791676     0.0029167079     35.0403246      
 2.70481383       0.00292838526    35.280447        0.997610891     -0.0971407204     0.997610891     -0.0971407204     0.00292838526    35.280447       
 2.73186197       0.00294022163    35.5211603       0.997608413     -0.0981118851     0.997608413     -0.0981118851     0.00294022163    35.5211603      
 2.75918059       0.00295221904    35.7624479       0.997605923     -0.0990927578     0.997605923     -0.0990927578     0.00295221904    35.7624479      
 2.78677239       0.00296437955    36.0042932       0.997603419     -0.100083435      0.997603419     -0.100083435      0.00296437955    36.0042932      
 2.81464012       0.00297670523    36.2466791       0.997600903     -0.101084016      0.997600903     -0.101084016      0.00297670523    36.2466791      
 2.84278652       0.00298919819    36.4895886       0.997598373     -0.102094599      0.997598373     -0.102094599      0.00298919819    36.4895886      
 2.87121438       0.00300186053    36.7330042       0.997595831     -0.103115283      0.997595831     -0.103115283      0.00300186053    36.7330042      
 2.89992653       0.00301469439    36.9769086       0.997593275     -0.104146171      0.997593275     -0.104146171      0.00301469439    36.9769086      
 2.92892579       0.00302770192    37.221284        0.997590706     -0.105187363      0.997590706     -0.105187363      0.00302770192    37.221284       
 2.95821505       0.0030408853     37.4661126       0.997588124     -0.106238963      0.997588124     -0.106238963      0.0030408853     37.4661126      
 2.9877972        0.00305424672    37.7113763       0.997585528     -0.107301075      0.997585528     -0.107301075      0.00305424672    37.7113763      
 3.01767517       0.00306778838    37.957057        0.997582919     -0.108373804      0.997582919     -0.108373804      0.00306778838    37.957057       
 3.04785192       0.00308151253    38.2031363       0.997580297     -0.109457256      0.997580297     -0.109457256      0.00308151253    38.2031363      
 3.07833044       0.00309542141    38.4495957       0.997577661     -0.110551538      0.997577661     -0.110551538      0.00309542141    38.4495957      
 3.10911375       0.00310951729    38.6964167       0.997575011     -0.111656759      0.997575011     -0.111656759      0.00310951729    38.6964167      
 3.14020489       0.00312380246    38.9435804       0.997572347     -0.112773027      0.997572347     -0.112773027      0.00312380246    38.9435804      
 3.17160693       0.00313827923    39.191068        0.99756967      -0.113900453      0.99756967      -0.113900453      0.00313827923    39.191068       
 3.203323         0.00315294994    39.4388604       0.997566978     -0.11503915       0.997566978     -0.11503915       0.00315294994    39.4388604      
 3.23535623       0.00316781692    39.6869385       0.997564273     -0.116189228      0.997564273     -0.116189228      0.00316781692    39.6869385      
 3.2677098        0.00318288255    39.9352832       0.997561554     -0.117350802      0.997561554     -0.117350802      0.00318288255    39.9352832      
 3.30038689       0.00319814922    40.183875        0.99755882      -0.118523988      0.99755882      -0.118523988      0.00319814922    40.183875       
 3.33339076       0.00321361933    40.4326945       0.997556072     -0.1197089        0.997556072     -0.1197089        0.00321361933    40.4326945      
 3.36672467       0.00322929532    40.6817223       0.99755331      -0.120905656      0.99755331      -0.120905656      0.00322929532    40.6817223      
 3.40039192       0.00324517963    40.9309388       0.997550533     -0.122114375      0.997550533     -0.122114375      0.00324517963    40.9309388      
 3.43439584       0.00326127474    41.1803242       0.997547742     -0.123335176      0.997547742     -0.123335176      0.00326127474    41.1803242      
 3.4687398        0.00327758313    41.4298589       0.997544936     -0.12456818       0.997544936     -0.12456818       0.00327758313    41.4298589      
 3.50342719       0.00329410732    41.6795232       0.997542116     -0.125813509      0.997542116     -0.125813509      0.00329410732    41.6795232      
