Freq.	S11(v1)	S12(v1)	S21(v1)	S22(v1)
1.00000000000000e+006	(-5.15011456936643e+001dB,1.36206229949122e+001°)	(-2.24852112797313e-002dB,-3.59886613678800e-002°)	(-2.24852112797275e-002dB,-3.59886613678799e-002°)	(-5.15011456936677e+001dB,1.36206229949216e+001°)
1.01001774583802e+006	(-5.14928823212372e+001dB,1.37463703426655e+001°)	(-2.24945682517677e-002dB,-3.63491475350137e-002°)	(-2.24945682517667e-002dB,-3.63491475350137e-002°)	(-5.14928823212383e+001dB,1.37463703426559e+001°)
1.02013584690772e+006	(-5.14845185711278e+001dB,1.38731611382068e+001°)	(-2.25039724903453e-002dB,-3.67132443628689e-002°)	(-2.25039724903424e-002dB,-3.67132443628689e-002°)	(-5.14845185711339e+001dB,1.38731611382425e+001°)
1.03035530854230e+006	(-5.14760529807111e+001dB,1.40010011749673e+001°)	(-2.25134242352562e-002dB,-3.70809880318224e-002°)	(-2.25134242352562e-002dB,-3.70809880318226e-002°)	(-5.14760529807139e+001dB,1.40010011749701e+001°)
1.04067714614614e+006	(-5.14674840714793e+001dB,1.41298962250712e+001°)	(-2.25229237388862e-002dB,-3.74524150445655e-002°)	(-2.25229237388804e-002dB,-3.74524150445652e-002°)	(-5.14674840714814e+001dB,1.41298962250930e+001°)
1.05110238529567e+006	(-5.14588103443802e+001dB,1.42598519990681e+001°)	(-2.25324712506628e-002dB,-3.78275623094878e-002°)	(-2.25324712506599e-002dB,-3.78275623094876e-002°)	(-5.14588103443847e+001dB,1.42598519990880e+001°)
1.06163206184130e+006	(-5.14500302798553e+001dB,1.43908741696639e+001°)	(-2.25420670201099e-002dB,-3.82064670765582e-002°)	(-2.25420670201079e-002dB,-3.82064670765583e-002°)	(-5.14500302798592e+001dB,1.43908741696784e+001°)
1.07226722201032e+006	(-5.14411423390828e+001dB,1.45229683563925e+001°)	(-2.25517112991152e-002dB,-3.85891669804079e-002°)	(-2.25517112991133e-002dB,-3.85891669804079e-002°)	(-5.14411423390867e+001dB,1.45229683563900e+001°)
1.08300892251087e+006	(-5.14321449641986e+001dB,1.46561401300917e+001°)	(-2.25614043435076e-002dB,-3.89757000273531e-002°)	(-2.25614043435076e-002dB,-3.89757000273532e-002°)	(-5.14321449641998e+001dB,1.46561401300798e+001°)
1.09385823063689e+006	(-5.14230365764057e+001dB,1.47903950039654e+001°)	(-2.25711464078230e-002dB,-3.93661046078494e-002°)	(-2.25711464078210e-002dB,-3.93661046078495e-002°)	(-5.14230365764084e+001dB,1.47903950039545e+001°)
1.10481622437424e+006	(-5.14138155772806e+001dB,1.49257384357771e+001°)	(-2.25809377494274e-002dB,-3.97604194939202e-002°)	(-2.25809377494254e-002dB,-3.97604194939203e-002°)	(-5.14138155772856e+001dB,1.49257384357836e+001°)
1.11588399250775e+006	(-5.14044803474199e+001dB,1.50621758196167e+001°)	(-2.25907786247181e-002dB,-4.01586838517907e-002°)	(-2.25907786247161e-002dB,-4.01586838517908e-002°)	(-5.14044803474215e+001dB,1.50621758196158e+001°)
1.12706263472941e+006	(-5.13950292490192e+001dB,1.51997124921883e+001°)	(-2.26006692970614e-002dB,-4.05609372344576e-002°)	(-2.26006692970576e-002dB,-4.05609372344577e-002°)	(-5.13950292490250e+001dB,1.51997124922095e+001°)
1.13835326174766e+006	(-5.13854606210421e+001dB,1.53383537183166e+001°)	(-2.26106100231237e-002dB,-4.09672195942462e-002°)	(-2.26106100231218e-002dB,-4.09672195942464e-002°)	(-5.13854606210414e+001dB,1.53383537183148e+001°)
1.14975699539773e+006	(-5.13757727855511e+001dB,1.54781047017833e+001°)	(-2.26206010711724e-002dB,-4.13775712808798e-002°)	(-2.26206010711714e-002dB,-4.13775712808797e-002°)	(-5.13757727855523e+001dB,1.54781047017890e+001°)
1.16127496875312e+006	(-5.13659640413381e+001dB,1.56189705678754e+001°)	(-2.26306427029953e-002dB,-4.17920330540871e-002°)	(-2.26306427029963e-002dB,-4.17920330540872e-002°)	(-5.13659640413394e+001dB,1.56189705678609e+001°)
1.17290832623815e+006	(-5.13560326679146e+001dB,1.57609563768078e+001°)	(-2.26407351863605e-002dB,-4.22106460638374e-002°)	(-2.26407351863596e-002dB,-4.22106460638374e-002°)	(-5.13560326679173e+001dB,1.57609563768131e+001°)
1.18465822374170e+006	(-5.13459769229559e+001dB,1.59040671010940e+001°)	(-2.26508787862710e-002dB,-4.26334518939342e-002°)	(-2.26508787862729e-002dB,-4.26334518939342e-002°)	(-5.13459769229539e+001dB,1.59040671010894e+001°)
1.19652582873207e+006	(-5.13357950461844e+001dB,1.60483076388878e+001°)	(-2.26610737771750e-002dB,-4.30604925424161e-002°)	(-2.26610737771721e-002dB,-4.30604925424160e-002°)	(-5.13357950461902e+001dB,1.60483076388903e+001°)
1.20851232037294e+006	(-5.13254852525802e+001dB,1.61936828075354e+001°)	(-2.26713204248631e-002dB,-4.34918104012995e-002°)	(-2.26713204248641e-002dB,-4.34918104012993e-002°)	(-5.13254852525823e+001dB,1.61936828075549e+001°)
1.22061888964055e+006	(-5.13150457398569e+001dB,1.63401973294978e+001°)	(-2.26816190049927e-002dB,-4.39274483265918e-002°)	(-2.26816190049898e-002dB,-4.39274483265918e-002°)	(-5.13150457398603e+001dB,1.63401973295206e+001°)
1.23284673944206e+006	(-5.13044746827148e+001dB,1.64878558411622e+001°)	(-2.26919697894023e-002dB,-4.43674495825891e-002°)	(-2.26919697894033e-002dB,-4.43674495825892e-002°)	(-5.13044746827143e+001dB,1.64878558411399e+001°)
1.24519708473503e+006	(-5.12937702375300e+001dB,1.66366628968984e+001°)	(-2.27023730594274e-002dB,-4.48118578507087e-002°)	(-2.27023730594274e-002dB,-4.48118578507086e-002°)	(-5.12937702375315e+001dB,1.66366628969143e+001°)
1.25767115264815e+006	(-5.12829305368030e+001dB,1.67866229351364e+001°)	(-2.27128290877039e-002dB,-4.52607172860814e-002°)	(-2.27128290877029e-002dB,-4.52607172860816e-002°)	(-5.12829305368048e+001dB,1.67866229351449e+001°)
1.27027018260320e+006	(-5.12719536946826e+001dB,1.69377403092065e+001°)	(-2.27233381567416e-002dB,-4.57140724603648e-002°)	(-2.27233381567416e-002dB,-4.57140724603650e-002°)	(-5.12719536946878e+001dB,1.69377403092217e+001°)
1.28299542643814e+006	(-5.12608378023915e+001dB,1.70900192656365e+001°)	(-2.27339005447357e-002dB,-4.61719683905413e-002°)	(-2.27339005447348e-002dB,-4.61719683905412e-002°)	(-5.12608378023934e+001dB,1.70900192656594e+001°)
1.29584814853154e+006	(-5.12495809322683e+001dB,1.72434639392211e+001°)	(-2.27445165359450e-002dB,-4.66344505684410e-002°)	(-2.27445165359459e-002dB,-4.66344505684409e-002°)	(-5.12495809322685e+001dB,1.72434639392157e+001°)
1.30882962592820e+006	(-5.12381811356134e+001dB,1.73980783668101e+001°)	(-2.27551864171036e-002dB,-4.71015649083535e-002°)	(-2.27551864171026e-002dB,-4.71015649083534e-002°)	(-5.12381811356155e+001dB,1.73980783668276e+001°)
1.32194114846603e+006	(-5.12266364417801e+001dB,1.75538664578826e+001°)	(-2.27659104717123e-002dB,-4.75733578145694e-002°)	(-2.27659104717123e-002dB,-4.75733578145694e-002°)	(-5.12266364417801e+001dB,1.75538664578820e+001°)
1.33518401890418e+006	(-5.12149448607960e+001dB,1.77108320157273e+001°)	(-2.27766889899250e-002dB,-4.80498761346307e-002°)	(-2.27766889899221e-002dB,-4.80498761346306e-002°)	(-5.12149448607987e+001dB,1.77108320157322e+001°)
1.34855955305256e+006	(-5.12031043811605e+001dB,1.78689787168701e+001°)	(-2.27875222604443e-002dB,-4.85311671963768e-002°)	(-2.27875222604443e-002dB,-4.85311671963768e-002°)	(-5.12031043811609e+001dB,1.78689787168606e+001°)
1.36206907990248e+006	(-5.11911129721140e+001dB,1.80283101198680e+001°)	(-2.27984105779481e-002dB,-4.90172787919305e-002°)	(-2.27984105779462e-002dB,-4.90172787919305e-002°)	(-5.11911129721204e+001dB,1.80283101199020e+001°)
1.37571394175877e+006	(-5.11789685800323e+001dB,1.81888296434398e+001°)	(-2.28093542309612e-002dB,-4.95082592097045e-002°)	(-2.28093542309621e-002dB,-4.95082592097045e-002°)	(-5.11789685800355e+001dB,1.81888296434494e+001°)
1.38949549437313e+006	(-5.11666691342162e+001dB,1.83505405883720e+001°)	(-2.28203535202820e-002dB,-5.00041572035803e-002°)	(-2.28203535202849e-002dB,-5.00041572035802e-002°)	(-5.11666691342251e+001dB,1.83505405884000e+001°)
1.40341510707884e+006	(-5.11542125401521e+001dB,1.85134461116231e+001°)	(-2.28314087379713e-002dB,-5.05050220171969e-002°)	(-2.28314087379742e-002dB,-5.05050220171970e-002°)	(-5.11542125401562e+001dB,1.85134461116449e+001°)
1.41747416292680e+006	(-5.11415966868249e+001dB,1.86775492332064e+001°)	(-2.28425201878031e-002dB,-5.10109034018561e-002°)	(-2.28425201878021e-002dB,-5.10109034018561e-002°)	(-5.11415966868313e+001dB,1.86775492332389e+001°)
1.43167405882297e+006	(-5.11288194404521e+001dB,1.88428528302015e+001°)	(-2.28536881680340e-002dB,-5.15218515900781e-002°)	(-2.28536881680330e-002dB,-5.15218515900781e-002°)	(-5.11288194404580e+001dB,1.88428528302435e+001°)
1.44601620566715e+006	(-5.11158786488015e+001dB,1.90093596294582e+001°)	(-2.28649129819976e-002dB,-5.20379173338344e-002°)	(-2.28649129819986e-002dB,-5.20379173338345e-002°)	(-5.11158786488035e+001dB,1.90093596294751e+001°)
1.46050202849318e+006	(-5.11027721402130e+001dB,1.91770722128532e+001°)	(-2.28761949363493e-002dB,-5.25591518787449e-002°)	(-2.28761949363474e-002dB,-5.25591518787449e-002°)	(-5.11027721402166e+001dB,1.91770722128674e+001°)
1.47513296661055e+006	(-5.10894977232574e+001dB,1.93459930054970e+001°)	(-2.28875343386223e-002dB,-5.30856069868246e-002°)	(-2.28875343386165e-002dB,-5.30856069868245e-002°)	(-5.10894977232673e+001dB,1.93459930055455e+001°)
1.48991047374734e+006	(-5.10760531855005e+001dB,1.95161242675193e+001°)	(-2.28989314928196e-002dB,-5.36173349439554e-002°)	(-2.28989314928205e-002dB,-5.36173349439553e-002°)	(-5.10760531855037e+001dB,1.95161242675402e+001°)
1.50483601819475e+006	(-5.10624362989410e+001dB,1.96874681048924e+001°)	(-2.29103867154495e-002dB,-5.41543885578866e-002°)	(-2.29103867154456e-002dB,-5.41543885578866e-002°)	(-5.10624362989487e+001dB,1.96874681049259e+001°)
1.51991108295293e+006	(-5.10486448135100e+001dB,1.98600264519565e+001°)	(-2.29219003157195e-002dB,-5.46968211577907e-002°)	(-2.29219003157146e-002dB,-5.46968211577907e-002°)	(-5.10486448135174e+001dB,1.98600264519952e+001°)
1.53513716587835e+006	(-5.10346764621431e+001dB,2.00338010716966e+001°)	(-2.29334726090181e-002dB,-5.52446866179009e-002°)	(-2.29334726090181e-002dB,-5.52446866179011e-002°)	(-5.10346764621463e+001dB,2.00338010717184e+001°)
1.55051577983262e+006	(-5.10205289596569e+001dB,2.02087935542685e+001°)	(-2.29451039136693e-002dB,-5.57980393475801e-002°)	(-2.29451039136674e-002dB,-5.57980393475801e-002°)	(-5.10205289596599e+001dB,2.02087935542802e+001°)
1.56604845283283e+006	(-5.10062000025168e+001dB,2.03850053126152e+001°)	(-2.29567945495199e-002dB,-5.63569342943023e-002°)	(-2.29567945495219e-002dB,-5.63569342943023e-002°)	(-5.10062000025246e+001dB,2.03850053126579e+001°)
1.58173672820334e+006	(-5.09916872675147e+001dB,2.05624375676371e+001°)	(-2.29685448321046e-002dB,-5.69214269670029e-002°)	(-2.29685448321036e-002dB,-5.69214269670031e-002°)	(-5.09916872675149e+001dB,2.05624375676329e+001°)
1.59758216472915e+006	(-5.09769884181087e+001dB,2.07410913671716e+001°)	(-2.29803550921408e-002dB,-5.74915734195462e-002°)	(-2.29803550921369e-002dB,-5.74915734195460e-002°)	(-5.09769884181143e+001dB,2.07410913672010e+001°)
1.61358633681076e+006	(-5.09621010965245e+001dB,2.09209675542177e+001°)	(-2.29922256495016e-002dB,-5.80674302761842e-002°)	(-2.29922256495016e-002dB,-5.80674302761842e-002°)	(-5.09621010965276e+001dB,2.09209675542409e+001°)
1.62975083462064e+006	(-5.09470229306264e+001dB,2.11020667832957e+001°)	(-2.30041568337339e-002dB,-5.86490547254871e-002°)	(-2.30041568337320e-002dB,-5.86490547254870e-002°)	(-5.09470229306302e+001dB,2.11020667833186e+001°)
1.64607726426117e+006	(-5.09317515306840e+001dB,2.12843895083332e+001°)	(-2.30161489732566e-002dB,-5.92365045235512e-002°)	(-2.30161489732556e-002dB,-5.92365045235512e-002°)	(-5.09317515306860e+001dB,2.12843895083499e+001°)
1.66256724792429e+006	(-5.09162844922591e+001dB,2.14679359788797e+001°)	(-2.30282024021359e-002dB,-5.98298380157732e-002°)	(-2.30282024021379e-002dB,-5.98298380157731e-002°)	(-5.09162844922632e+001dB,2.14679359788971e+001°)
1.67922242405262e+006	(-5.09006193934036e+001dB,2.16527062382152e+001°)	(-2.30403174519239e-002dB,-6.04291141148532e-002°)	(-2.30403174519239e-002dB,-6.04291141148533e-002°)	(-5.09006193934079e+001dB,2.16527062382402e+001°)
1.69604444750229e+006	(-5.08847537989440e+001dB,2.18387001164335e+001°)	(-2.30524944615316e-002dB,-6.10343923407593e-002°)	(-2.30524944615326e-002dB,-6.10343923407593e-002°)	(-5.08847537989524e+001dB,2.18387001164865e+001°)
1.71303498970736e+006	(-5.08686852558331e+001dB,2.20259172235122e+001°)	(-2.30647337632366e-002dB,-6.16457327987541e-002°)	(-2.30647337632366e-002dB,-6.16457327987541e-002°)	(-5.08686852558360e+001dB,2.20259172235247e+001°)
1.73019573884589e+006	(-5.08524113010593e+001dB,2.22143569595276e+001°)	(-2.30770357049090e-002dB,-6.22631961996238e-002°)	(-2.30770357049061e-002dB,-6.22631961996238e-002°)	(-5.08524113010631e+001dB,2.22143569595481e+001°)
1.74752840000768e+006	(-5.08359294546161e+001dB,2.24040184927196e+001°)	(-2.30894006271065e-002dB,-6.28868438605808e-002°)	(-2.30894006271046e-002dB,-6.28868438605809e-002°)	(-5.08359294546216e+001dB,2.24040184927590e+001°)
1.76503469536368e+006	(-5.08192372236856e+001dB,2.25949007618386e+001°)	(-2.31018288739630e-002dB,-6.35167377202285e-002°)	(-2.31018288739611e-002dB,-6.35167377202285e-002°)	(-5.08192372236914e+001dB,2.25949007618630e+001°)
1.78271636433713e+006	(-5.08023321030643e+001dB,2.27870024811304e+001°)	(-2.31143207944936e-002dB,-6.41529403201477e-002°)	(-2.31143207944926e-002dB,-6.41529403201477e-002°)	(-5.08023321030700e+001dB,2.27870024811663e+001°)
1.80057516377634e+006	(-5.07852115745121e+001dB,2.29803221195043e+001°)	(-2.31268767366097e-002dB,-6.47955148475655e-002°)	(-2.31268767366106e-002dB,-6.47955148475655e-002°)	(-5.07852115745140e+001dB,2.29803221195090e+001°)
1.81861286812931e+006	(-5.07678731098200e+001dB,2.31748579163724e+001°)	(-2.31394970572561e-002dB,-6.54445251073083e-002°)	(-2.31394970572474e-002dB,-6.54445251073081e-002°)	(-5.07678731098267e+001dB,2.31748579164143e+001°)
1.83683126961999e+006	(-5.07503141671538e+001dB,2.33706078553036e+001°)	(-2.31521821071977e-002dB,-6.61000355567151e-002°)	(-2.31521821071986e-002dB,-6.61000355567151e-002°)	(-5.07503141671609e+001dB,2.33706078553394e+001°)
1.85523217842638e+006	(-5.07325321946189e+001dB,2.35675696791798e+001°)	(-2.31649322423478e-002dB,-6.67621112829820e-002°)	(-2.31649322423478e-002dB,-6.67621112829819e-002°)	(-5.07325321946180e+001dB,2.35675696791704e+001°)
1.87381742286038e+006	(-5.07145246333647e+001dB,2.37657408826644e+001°)	(-2.31777478298103e-002dB,-6.74308180391343e-002°)	(-2.31777478298112e-002dB,-6.74308180391344e-002°)	(-5.07145246333699e+001dB,2.37657408826957e+001°)
1.89258884954945e+006	(-5.06962889104050e+001dB,2.39651186934726e+001°)	(-2.31906292242719e-002dB,-6.81062222305047e-002°)	(-2.31906292242738e-002dB,-6.81062222305047e-002°)	(-5.06962889104087e+001dB,2.39651186934820e+001°)
1.91154832362011e+006	(-5.06778224477180e+001dB,2.41657000929835e+001°)	(-2.32035767950541e-002dB,-6.87883909211437e-002°)	(-2.32035767950512e-002dB,-6.87883909211436e-002°)	(-5.06778224477231e+001dB,2.41657000930153e+001°)
1.93069772888324e+006	(-5.06591226573899e+001dB,2.43674817897279e+001°)	(-2.32165909071292e-002dB,-6.94773918590020e-002°)	(-2.32165909071263e-002dB,-6.94773918590020e-002°)	(-5.06591226573948e+001dB,2.43674817897620e+001°)
1.95003896802124e+006	(-5.06401869451209e+001dB,2.45704602308887e+001°)	(-2.32296719314446e-002dB,-7.01732934641045e-002°)	(-2.32296719314456e-002dB,-7.01732934641045e-002°)	(-5.06401869451246e+001dB,2.45704602309186e+001°)
1.96957396277712e+006	(-5.06210127093018e+001dB,2.47746315924985e+001°)	(-2.32428202394101e-002dB,-7.08761648392033e-002°)	(-2.32428202394091e-002dB,-7.08761648392033e-002°)	(-5.06210127093035e+001dB,2.47746315925148e+001°)
1.98930465414541e+006	(-5.06015973435908e+001dB,2.49799917784974e+001°)	(-2.32560362082763e-002dB,-7.15860757848239e-002°)	(-2.32560362082753e-002dB,-7.15860757848239e-002°)	(-5.06015973435944e+001dB,2.49799917785169e+001°)
2.00923300256504e+006	(-5.05819382349266e+001dB,2.51865364147045e+001°)	(-2.32693202133176e-002dB,-7.23030967909481e-002°)	(-2.32693202133098e-002dB,-7.23030967909480e-002°)	(-5.05819382349282e+001dB,2.51865364147117e+001°)
2.02936098811410e+006	(-5.05620327680703e+001dB,2.53942608491569e+001°)	(-2.32826726386304e-002dB,-7.30272990653191e-002°)	(-2.32826726386304e-002dB,-7.30272990653191e-002°)	(-5.05620327680736e+001dB,2.53942608491811e+001°)
2.04969061070663e+006	(-5.05418783218108e+001dB,2.56031601432957e+001°)	(-2.32960938637494e-002dB,-7.37587545175071e-002°)	(-2.32960938637456e-002dB,-7.37587545175071e-002°)	(-5.05418783218139e+001dB,2.56031601433228e+001°)
2.07022389029127e+006	(-5.05214722738197e+001dB,2.58132290733989e+001°)	(-2.33095842753425e-002dB,-7.44975357875322e-002°)	(-2.33095842753425e-002dB,-7.44975357875323e-002°)	(-5.05214722738197e+001dB,2.58132290733990e+001°)
2.09096286705201e+006	(-5.05008120004778e+001dB,2.60244621309794e+001°)	(-2.33231442652591e-002dB,-7.52437162357932e-002°)	(-2.33231442652543e-002dB,-7.52437162357931e-002°)	(-5.05008120004814e+001dB,2.60244621309986e+001°)
2.11190960161089e+006	(-5.04798948748255e+001dB,2.62368535085747e+001°)	(-2.33367742203823e-002dB,-7.59973699557395e-002°)	(-2.33367742203881e-002dB,-7.59973699557397e-002°)	(-5.04798948748255e+001dB,2.62368535085655e+001°)
2.13306617523271e+006	(-5.04587182723997e+001dB,2.64503971104088e+001°)	(-2.33504745388006e-002dB,-7.67585717878233e-002°)	(-2.33504745387996e-002dB,-7.67585717878233e-002°)	(-5.04587182724009e+001dB,2.64503971104024e+001°)
2.15443469003187e+006	(-5.04372795680138e+001dB,2.66650865392738e+001°)	(-2.33642456165098e-002dB,-7.75273973195628e-002°)	(-2.33642456165079e-002dB,-7.75273973195627e-002°)	(-5.04372795680129e+001dB,2.66650865392575e+001°)
2.17601726918123e+006	(-5.04155761389379e+001dB,2.68809151013159e+001°)	(-2.33780878551296e-002dB,-7.83039228930483e-002°)	(-2.33780878551286e-002dB,-7.83039228930482e-002°)	(-5.04155761389395e+001dB,2.68809151013323e+001°)
2.19781605712304e+006	(-5.03936053638567e+001dB,2.70978757935654e+001°)	(-2.33920016544371e-002dB,-7.90882256221249e-002°)	(-2.33920016544352e-002dB,-7.90882256221249e-002°)	(-5.03936053638580e+001dB,2.70978757935664e+001°)
2.21983321978202e+006	(-5.03713646267176e+001dB,2.73159613177795e+001°)	(-2.34059874235970e-002dB,-7.98803833825033e-002°)	(-2.34059874235903e-002dB,-7.98803833825032e-002°)	(-5.03713646267184e+001dB,2.73159613177871e+001°)
2.24207094478060e+006	(-5.03488513148705e+001dB,2.75351640620527e+001°)	(-2.34200455701190e-002dB,-8.06804748380098e-002°)	(-2.34200455701161e-002dB,-8.06804748380098e-002°)	(-5.03488513148727e+001dB,2.75351640620611e+001°)
2.26453144165623e+006	(-5.03260628218469e+001dB,2.77554761099141e+001°)	(-2.34341765070616e-002dB,-8.14885794346454e-002°)	(-2.34341765070655e-002dB,-8.14885794346453e-002°)	(-5.03260628218472e+001dB,2.77554761099201e+001°)
2.28721694208096e+006	(-5.03029965477078e+001dB,2.79768892316460e+001°)	(-2.34483806498464e-002dB,-8.23047774211178e-002°)	(-2.34483806498473e-002dB,-8.23047774211179e-002°)	(-5.03029965477089e+001dB,2.79768892316492e+001°)
2.31012970008314e+006	(-5.02796498991770e+001dB,2.81993948878990e+001°)	(-2.34626584149686e-002dB,-8.31291498338920e-002°)	(-2.34626584149657e-002dB,-8.31291498338920e-002°)	(-5.02796498991777e+001dB,2.81993948878993e+001°)
2.33327199227145e+006	(-5.02560202932901e+001dB,2.84229842244725e+001°)	(-2.34770102263168e-002dB,-8.39617785401644e-002°)	(-2.34770102263148e-002dB,-8.39617785401643e-002°)	(-5.02560202932906e+001dB,2.84229842244749e+001°)
2.35664611806100e+006	(-5.02321051556490e+001dB,2.86476480734097e+001°)	(-2.34914365081813e-002dB,-8.48027462127514e-002°)	(-2.34914365081794e-002dB,-8.48027462127513e-002°)	(-5.02321051556499e+001dB,2.86476480734338e+001°)
2.38025439990190e+006	(-5.02079019226825e+001dB,2.88733769459583e+001°)	(-2.35059376871579e-002dB,-8.56521363655190e-002°)	(-2.35059376871588e-002dB,-8.56521363655188e-002°)	(-5.02079019226847e+001dB,2.88733769459742e+001°)
