# MHz           S          MA           R         50
!-----------------------------------------------------------------------------
!Freq             MagS11           AngS11           MagS21           AngS21           MagS12           AngS12           MagS22           AngS22
 1                0.00323421728    12.2601562       0.996839781     -0.0394748591     0.996839781     -0.0394748591     0.00323421728    12.2601562      
 1.01             0.00323748253    12.3719582       0.996837942     -0.0398695342     0.996837942     -0.0398695342     0.00323748253    12.3719582      
 1.0201           0.00324078401    12.4846832       0.996836094     -0.040268155      0.996836094     -0.040268155      0.00324078401    12.4846832      
 1.030301         0.00324412229    12.5983368       0.996834237     -0.0406707609     0.996834237     -0.0406707609     0.00324412229    12.5983368      
 1.04060401       0.0032474979     12.7129242       0.996832371     -0.0410773917     0.996832371     -0.0410773917     0.0032474979     12.7129242      
 1.05101005       0.00325091142    12.8284509       0.996830495     -0.0414880876     0.996830495     -0.0414880876     0.00325091142    12.8284509      
 1.06152015       0.0032543634     12.9449223       0.99682861      -0.0419028893     0.99682861      -0.0419028893     0.0032543634     12.9449223      
 1.07213535       0.00325785443    13.0623438       0.996826715     -0.0423218379     0.996826715     -0.0423218379     0.00325785443    13.0623438      
 1.08285671       0.0032613851     13.1807206       0.996824811     -0.0427449747     0.996824811     -0.0427449747     0.0032613851     13.1807206      
 1.09368527       0.00326495601    13.3000581       0.996822898     -0.0431723417     0.996822898     -0.0431723417     0.00326495601    13.3000581      
 1.10462213       0.00326856776    13.4203614       0.996820974     -0.043603981      0.996820974     -0.043603981      0.00326856776    13.4203614      
 1.11566835       0.00327222097    13.541636        0.996819041     -0.0440399356     0.996819041     -0.0440399356     0.00327222097    13.541636       
 1.12682503       0.00327591627    13.6638868       0.996817098     -0.0444802483     0.996817098     -0.0444802483     0.00327591627    13.6638868      
 1.13809328       0.00327965429    13.7871192       0.996815146     -0.0449249629     0.996815146     -0.0449249629     0.00327965429    13.7871192      
 1.14947421       0.00328343569    13.9113381       0.996813184     -0.0453741234     0.996813184     -0.0453741234     0.00328343569    13.9113381      
 1.16096896       0.00328726112    14.0365487       0.996811211     -0.045827774      0.996811211     -0.045827774      0.00328726112    14.0365487      
 1.17257864       0.00329113126    14.1627561       0.996809229     -0.0462859599     0.996809229     -0.0462859599     0.00329113126    14.1627561      
 1.18430443       0.00329504677    14.2899651       0.996807237     -0.0467487262     0.996807237     -0.0467487262     0.00329504677    14.2899651      
 1.19614748       0.00329900836    14.4181807       0.996805235     -0.0472161187     0.996805235     -0.0472161187     0.00329900836    14.4181807      
 1.20810895       0.00330301672    14.5474079       0.996803223     -0.0476881838     0.996803223     -0.0476881838     0.00330301672    14.5474079      
 1.22019004       0.00330707256    14.6776514       0.9968012       -0.048164968      0.9968012       -0.048164968      0.00330707256    14.6776514      
 1.23239194       0.00331117661    14.808916        0.996799168     -0.0486465187     0.996799168     -0.0486465187     0.00331117661    14.808916       
 1.24471586       0.00331532961    14.9412064       0.996797125     -0.0491328833     0.996797125     -0.0491328833     0.00331532961    14.9412064      
 1.25716302       0.0033195323     15.0745274       0.996795072     -0.0496241101     0.996795072     -0.0496241101     0.0033195323     15.0745274      
 1.26973465       0.00332378545    15.2088834       0.996793009     -0.0501202476     0.996793009     -0.0501202476     0.00332378545    15.2088834      
 1.282432         0.00332808981    15.3442791       0.996790935     -0.0506213449     0.996790935     -0.0506213449     0.00332808981    15.3442791      
 1.29525631       0.00333244618    15.4807188       0.996788851     -0.0511274516     0.996788851     -0.0511274516     0.00333244618    15.4807188      
 1.30820888       0.00333685534    15.6182071       0.996786756     -0.0516386178     0.996786756     -0.0516386178     0.00333685534    15.6182071      
 1.32129097       0.00334131812    15.7567482       0.996784651     -0.052154894      0.996784651     -0.052154894      0.00334131812    15.7567482      
 1.33450388       0.00334583532    15.8963463       0.996782535     -0.0526763313     0.996782535     -0.0526763313     0.00334583532    15.8963463      
 1.34784892       0.00335040779    16.0370057       0.996780408     -0.0532029813     0.996780408     -0.0532029813     0.00335040779    16.0370057      
 1.3613274        0.00335503636    16.1787304       0.996778271     -0.0537348961     0.996778271     -0.0537348961     0.00335503636    16.1787304      
 1.37494068       0.00335972189    16.3215245       0.996776123     -0.0542721283     0.996776123     -0.0542721283     0.00335972189    16.3215245      
 1.38869009       0.00336446527    16.4653918       0.996773964     -0.0548147311     0.996773964     -0.0548147311     0.00336446527    16.4653918      
 1.40257699       0.00336926737    16.6103362       0.996771794     -0.0553627581     0.996771794     -0.0553627581     0.00336926737    16.6103362      
 1.41660276       0.0033741291     16.7563615       0.996769613     -0.0559162635     0.996769613     -0.0559162635     0.0033741291     16.7563615      
 1.43076878       0.00337905136    16.9034713       0.996767421     -0.0564753022     0.996767421     -0.0564753022     0.00337905136    16.9034713      
 1.44507647       0.00338403509    17.0516692       0.996765219     -0.0570399294     0.996765219     -0.0570399294     0.00338403509    17.0516692      
 1.45952724       0.00338908123    17.2009585       0.996763005     -0.057610201      0.996763005     -0.057610201      0.00338908123    17.2009585      
 1.47412251       0.00339419073    17.3513427       0.99676078      -0.0581861734     0.99676078      -0.0581861734     0.00339419073    17.3513427      
 1.48886373       0.00339936456    17.502825        0.996758543     -0.0587679035     0.996758543     -0.0587679035     0.00339936456    17.502825       
 1.50375237       0.00340460372    17.6554086       0.996756295     -0.059355449      0.996756295     -0.059355449      0.00340460372    17.6554086      
 1.51878989       0.00340990919    17.8090964       0.996754036     -0.0599488678     0.996754036     -0.0599488678     0.00340990919    17.8090964      
 1.53397779       0.003415282      17.9638914       0.996751766     -0.0605482189     0.996751766     -0.0605482189     0.003415282      17.9638914      
 1.54931757       0.00342072318    18.1197964       0.996749484     -0.0611535614     0.996749484     -0.0611535614     0.00342072318    18.1197964      
 1.56481075       0.00342623376    18.276814        0.99674719      -0.0617649551     0.99674719      -0.0617649551     0.00342623376    18.276814       
 1.58045885       0.00343181482    18.4349468       0.996744885     -0.0623824607     0.996744885     -0.0623824607     0.00343181482    18.4349468      
 1.59626344       0.00343746743    18.5941972       0.996742569     -0.0630061392     0.996742569     -0.0630061392     0.00343746743    18.5941972      
 1.61222608       0.00344319269    18.7545674       0.99674024      -0.0636360523     0.99674024      -0.0636360523     0.00344319269    18.7545674      
 1.62834834       0.0034489917     18.9160597       0.9967379       -0.0642722622     0.9967379       -0.0642722622     0.0034489917     18.9160597      
 1.64463182       0.00345486559    19.0786761       0.996735548     -0.064914832      0.996735548     -0.064914832      0.00345486559    19.0786761      
 1.66107814       0.0034608155     19.2424183       0.996733184     -0.0655638252     0.996733184     -0.0655638252     0.0034608155     19.2424183      
 1.67768892       0.00346684259    19.4072882       0.996730808     -0.0662193059     0.996730808     -0.0662193059     0.00346684259    19.4072882      
 1.69446581       0.00347294805    19.5732874       0.99672842      -0.0668813391     0.99672842      -0.0668813391     0.00347294805    19.5732874      
 1.71141047       0.00347913305    19.7404172       0.99672602      -0.0675499903     0.99672602      -0.0675499903     0.00347913305    19.7404172      
 1.72852457       0.00348539882    19.9086789       0.996723607     -0.0682253254     0.996723607     -0.0682253254     0.00348539882    19.9086789      
 1.74580982       0.00349174658    20.0780736       0.996721183     -0.0689074115     0.996721183     -0.0689074115     0.00349174658    20.0780736      
 1.76326792       0.00349817758    20.2486024       0.996718746     -0.0695963159     0.996718746     -0.0695963159     0.00349817758    20.2486024      
 1.7809006        0.00350469308    20.4202659       0.996716297     -0.0702921068     0.996716297     -0.0702921068     0.00350469308    20.4202659      
 1.7987096        0.00351129436    20.5930649       0.996713835     -0.0709948529     0.996713835     -0.0709948529     0.00351129436    20.5930649      
 1.8166967        0.00351798272    20.7669997       0.996711361     -0.0717046239     0.996711361     -0.0717046239     0.00351798272    20.7669997      
 1.83486367       0.00352475948    20.9420707       0.996708874     -0.07242149       0.996708874     -0.07242149       0.00352475948    20.9420707      
 1.8532123        0.00353162599    21.1182779       0.996706375     -0.073145522      0.996706375     -0.073145522      0.00353162599    21.1182779      
 1.87174443       0.00353858358    21.2956213       0.996703863     -0.0738767915     0.996703863     -0.0738767915     0.00353858358    21.2956213      
 1.89046187       0.00354563365    21.4741005       0.996701338     -0.0746153709     0.996701338     -0.0746153709     0.00354563365    21.4741005      
 1.90936649       0.00355277758    21.6537152       0.996698801     -0.0753613333     0.996698801     -0.0753613333     0.00355277758    21.6537152      
 1.92846015       0.00356001679    21.8344646       0.99669625      -0.0761147524     0.99669625      -0.0761147524     0.00356001679    21.8344646      
 1.94774475       0.0035673527     22.016348        0.996693687     -0.0768757028     0.996693687     -0.0768757028     0.0035673527     22.016348       
 1.9672222        0.00357478678    22.1993643       0.99669111      -0.0776442597     0.99669111      -0.0776442597     0.00357478678    22.1993643      
 1.98689442       0.0035823205     22.3835123       0.996688521     -0.0784204992     0.996688521     -0.0784204992     0.0035823205     22.3835123      
 2.00676337       0.00358995534    22.5687904       0.996685918     -0.079204498      0.996685918     -0.079204498      0.00358995534    22.5687904      
 2.026831         0.00359769282    22.7551971       0.996683302     -0.0799963336     0.996683302     -0.0799963336     0.00359769282    22.7551971      
 2.04709931       0.00360553448    22.9427304       0.996680672     -0.0807960845     0.996680672     -0.0807960845     0.00360553448    22.9427304      
 2.06757031       0.00361348186    23.1313883       0.99667803      -0.0816038296     0.99667803      -0.0816038296     0.00361348186    23.1313883      
 2.08824601       0.00362153655    23.3211685       0.996675374     -0.082419649      0.996675374     -0.082419649      0.00362153655    23.3211685      
 2.10912847       0.00362970014    23.5120685       0.996672704     -0.0832436232     0.996672704     -0.0832436232     0.00362970014    23.5120685      
 2.13021975       0.00363797424    23.7040855       0.99667002      -0.0840758339     0.99667002      -0.0840758339     0.00363797424    23.7040855      
 2.15152195       0.0036463605     23.8972166       0.996667323     -0.0849163632     0.996667323     -0.0849163632     0.0036463605     23.8972166      
 2.17303717       0.00365486057    24.0914584       0.996664613     -0.0857652944     0.996664613     -0.0857652944     0.00365486057    24.0914584      
 2.19476754       0.00366347614    24.2868077       0.996661888     -0.0866227113     0.996661888     -0.0866227113     0.00366347614    24.2868077      
 2.21671522       0.00367220891    24.4832607       0.996659149     -0.0874886989     0.996659149     -0.0874886989     0.00367220891    24.4832607      
 2.23888237       0.0036810606     24.6808136       0.996656397     -0.0883633427     0.996656397     -0.0883633427     0.0036810606     24.6808136      
 2.26127119       0.00369003296    24.8794621       0.99665363      -0.0892467293     0.99665363      -0.0892467293     0.00369003296    24.8794621      
 2.2838839        0.00369912776    25.0792019       0.996650849     -0.090138946      0.996650849     -0.090138946      0.00369912776    25.0792019      
 2.30672274       0.0037083468     25.2800283       0.996648054     -0.0910400811     0.996648054     -0.0910400811     0.0037083468     25.2800283      
 2.32978997       0.00371769189    25.4819364       0.996645245     -0.0919502237     0.996645245     -0.0919502237     0.00371769189    25.4819364      
 2.35308787       0.00372716487    25.6849212       0.996642421     -0.0928694639     0.996642421     -0.0928694639     0.00372716487    25.6849212      
 2.37661875       0.00373676759    25.8889772       0.996639583     -0.0937978925     0.996639583     -0.0937978925     0.00373676759    25.8889772      
 2.40038494       0.00374650195    26.0940987       0.996636731     -0.0947356013     0.996636731     -0.0947356013     0.00374650195    26.0940987      
 2.42438879       0.00375636984    26.3002799       0.996633863     -0.0956826832     0.996633863     -0.0956826832     0.00375636984    26.3002799      
 2.44863267       0.00376637321    26.5075146       0.996630981     -0.0966392317     0.996630981     -0.0966392317     0.00376637321    26.5075146      
 2.473119         0.003776514      26.7157963       0.996628085     -0.0976053415     0.996628085     -0.0976053415     0.003776514      26.7157963      
 2.49785019       0.00378679419    26.9251184       0.996625173     -0.0985811081     0.996625173     -0.0985811081     0.00378679419    26.9251184      
 2.52282869       0.00379721579    27.135474        0.996622246     -0.0995666281     0.996622246     -0.0995666281     0.00379721579    27.135474       
 2.54805698       0.00380778081    27.3468557       0.996619305     -0.100561999      0.996619305     -0.100561999      0.00380778081    27.3468557      
 2.57353755       0.00381849132    27.5592561       0.996616348     -0.101567319      0.996616348     -0.101567319      0.00381849132    27.5592561      
 2.59927293       0.00382934939    27.7726674       0.996613376     -0.102582688      0.996613376     -0.102582688      0.00382934939    27.7726674      
 2.62526565       0.0038403571     27.9870817       0.996610389     -0.103608205      0.996610389     -0.103608205      0.0038403571     27.9870817      
 2.65151831       0.0038515166     28.2024905       0.996607386     -0.104643974      0.996607386     -0.104643973      0.0038515166     28.2024905      
 2.67803349       0.00386283003    28.4188854       0.996604368     -0.105690095      0.996604368     -0.105690095      0.00386283003    28.4188854      
 2.70481383       0.00387429955    28.6362575       0.996601335     -0.106746672      0.996601335     -0.106746672      0.00387429955    28.6362575      
 2.73186197       0.00388592737    28.8545977       0.996598286     -0.107813811      0.996598286     -0.107813811      0.00388592737    28.8545977      
 2.75918059       0.00389771571    29.0738965       0.996595221     -0.108891616      0.996595221     -0.108891616      0.00389771571    29.0738965      
 2.78677239       0.00390966682    29.2941443       0.99659214      -0.109980193      0.99659214      -0.109980193      0.00390966682    29.2941443      
 2.81464012       0.00392178297    29.5153312       0.996589044     -0.111079652      0.996589044     -0.111079652      0.00392178297    29.5153312      
 2.84278652       0.00393406647    29.737447        0.996585931     -0.1121901        0.996585931     -0.1121901        0.00393406647    29.737447       
 2.87121438       0.00394651963    29.9604811       0.996582802     -0.113311647      0.996582802     -0.113311647      0.00394651963    29.9604811      
 2.89992653       0.00395914481    30.1844227       0.996579658     -0.114444404      0.996579658     -0.114444404      0.00395914481    30.1844227      
 2.92892579       0.00397194439    30.409261        0.996576497     -0.115588484      0.996576497     -0.115588484      0.00397194439    30.409261       
 2.95821505       0.00398492076    30.6349844       0.996573319     -0.116743998      0.996573319     -0.116743998      0.00398492076    30.6349844      
 2.9877972        0.00399807635    30.8615816       0.996570125     -0.117911063      0.996570125     -0.117911063      0.00399807635    30.8615816      
 3.01767517       0.00401141363    31.0890405       0.996566915     -0.119089792      0.996566915     -0.119089792      0.00401141363    31.0890405      
 3.04785192       0.00402493506    31.3173491       0.996563688     -0.120280302      0.996563688     -0.120280302      0.00402493506    31.3173491      
 3.07833044       0.00403864316    31.546495        0.996560444     -0.121482712      0.996560444     -0.121482712      0.00403864316    31.546495       
 3.10911375       0.00405254045    31.7764654       0.996557184     -0.12269714       0.996557184     -0.12269714       0.00405254045    31.7764654      
 3.14020489       0.00406662951    32.0072476       0.996553906     -0.123923707      0.996553906     -0.123923707      0.00406662951    32.0072476      
 3.17160693       0.00408091291    32.2388283       0.996550612     -0.125162532      0.996550612     -0.125162532      0.00408091291    32.2388283      
 3.203323         0.00409539327    32.4711941       0.9965473       -0.12641374       0.9965473       -0.12641374       0.00409539327    32.4711941      
 3.23535623       0.00411007322    32.7043312       0.996543971     -0.127677454      0.996543971     -0.127677454      0.00411007322    32.7043312      
 3.2677098        0.00412495545    32.9382257       0.996540625     -0.128953798      0.996540625     -0.128953798      0.00412495545    32.9382257      
 3.30038689       0.00414004262    33.1728633       0.996537261     -0.130242899      0.996537261     -0.130242899      0.00414004262    33.1728633      
 3.33339076       0.00415533748    33.4082297       0.99653388      -0.131544885      0.99653388      -0.131544885      0.00415533748    33.4082297      
 3.36672467       0.00417084276    33.64431         0.996530482     -0.132859883      0.996530482     -0.132859883      0.00417084276    33.64431        
 3.40039192       0.00418656125    33.8810894       0.996527065     -0.134188025      0.996527065     -0.134188025      0.00418656125    33.8810894      
 3.43439584       0.00420249574    34.1185525       0.996523631     -0.135529442      0.996523631     -0.135529442      0.00420249574    34.1185525      
 3.4687398        0.00421864906    34.3566841       0.996520179     -0.136884265      0.996520179     -0.136884265      0.00421864906    34.3566841      
 3.50342719       0.00423502406    34.5954683       0.996516709     -0.13825263       0.996516709     -0.13825263       0.00423502406    34.5954683      
