! Coilcraft 0302CS-10N Chip Inductor				
! 18 February 2004
# MHZ S MA R 50

1 5.479e-3 6.513 0.995 -0.036 0.995 -0.036 5.479e-3 6.513
22.247 0.015 66.082 0.994 -0.796 0.994 -0.796 0.015 66.082
43.495 0.028 75.624 0.993 -1.556 0.993 -1.556 0.028 75.624
64.742 0.041 78.727 0.993 -2.315 0.993 -2.315 0.041 78.727
85.99 0.054 79.988 0.992 -3.073 0.992 -3.073 0.054 79.988
107.238 0.067 80.475 0.991 -3.83 0.991 -3.83 0.067 80.475
128.485 0.08 80.565 0.99 -4.586 0.99 -4.586 0.08 80.565
149.732 0.093 80.423 0.989 -5.34 0.989 -5.34 0.093 80.423
170.98 0.106 80.137 0.987 -6.092 0.987 -6.092 0.106 80.137
192.227 0.119 79.752 0.986 -6.843 0.986 -6.843 0.119 79.752
213.475 0.132 79.3 0.984 -7.591 0.984 -7.591 0.132 79.3
234.723 0.145 78.798 0.982 -8.337 0.982 -8.337 0.145 78.798
255.97 0.158 78.26 0.98 -9.081 0.98 -9.081 0.158 78.26
277.217 0.171 77.695 0.978 -9.821 0.978 -9.821 0.171 77.695
298.465 0.183 77.108 0.976 -10.559 0.976 -10.559 0.183 77.108
319.712 0.196 76.506 0.973 -11.294 0.973 -11.294 0.196 76.506
340.96 0.208 75.89 0.97 -12.025 0.97 -12.025 0.208 75.89
362.207 0.221 75.266 0.968 -12.753 0.968 -12.753 0.221 75.266
383.455 0.233 74.634 0.965 -13.478 0.965 -13.478 0.233 74.634
404.702 0.245 73.996 0.962 -14.198 0.962 -14.198 0.245 73.996
425.95 0.258 73.355 0.959 -14.915 0.959 -14.915 0.258 73.355
447.197 0.269 72.711 0.955 -15.627 0.955 -15.627 0.269 72.711
468.445 0.281 72.065 0.952 -16.335 0.952 -16.335 0.281 72.065
489.693 0.293 71.419 0.948 -17.039 0.948 -17.039 0.293 71.419
510.94 0.305 70.773 0.945 -17.738 0.945 -17.738 0.305 70.773
532.188 0.316 70.127 0.941 -18.433 0.941 -18.433 0.316 70.127
553.435 0.328 69.482 0.937 -19.123 0.937 -19.123 0.328 69.482
574.682 0.339 68.84 0.933 -19.808 0.933 -19.808 0.339 68.84
595.93 0.35 68.199 0.929 -20.487 0.929 -20.487 0.35 68.199
617.177 0.361 67.561 0.925 -21.162 0.925 -21.162 0.361 67.561
638.425 0.372 66.926 0.92 -21.832 0.92 -21.832 0.372 66.926
659.672 0.383 66.294 0.916 -22.496 0.916 -22.496 0.383 66.294
680.92 0.393 65.665 0.911 -23.155 0.911 -23.155 0.393 65.665
702.167 0.404 65.041 0.907 -23.808 0.907 -23.808 0.404 65.041
723.415 0.414 64.42 0.902 -24.456 0.902 -24.456 0.414 64.42
744.662 0.424 63.803 0.897 -25.098 0.897 -25.098 0.424 63.803
765.91 0.434 63.191 0.893 -25.735 0.893 -25.735 0.434 63.191
787.157 0.444 62.583 0.888 -26.366 0.888 -26.366 0.444 62.583
808.405 0.454 61.979 0.883 -26.991 0.883 -26.991 0.454 61.979
829.652 0.464 61.381 0.878 -27.611 0.878 -27.611 0.464 61.381
850.9 0.473 60.787 0.873 -28.224 0.873 -28.224 0.473 60.787
872.147 0.482 60.198 0.868 -28.832 0.868 -28.832 0.482 60.198
893.395 0.491 59.614 0.863 -29.434 0.863 -29.434 0.491 59.614
914.642 0.501 59.035 0.858 -30.03 0.858 -30.03 0.501 59.035
935.89 0.509 58.461 0.852 -30.62 0.852 -30.62 0.509 58.461
957.137 0.518 57.893 0.847 -31.204 0.847 -31.204 0.518 57.893
978.385 0.527 57.33 0.842 -31.783 0.842 -31.783 0.527 57.33
999.632 0.535 56.772 0.837 -32.355 0.837 -32.355 0.535 56.772
1020.88 0.544 56.219 0.831 -32.922 0.831 -32.922 0.544 56.219
1042.127 0.552 55.672 0.826 -33.482 0.826 -33.482 0.552 55.672
1063.375 0.56 55.13 0.821 -34.037 0.821 -34.037 0.56 55.13
1084.622 0.568 54.594 0.815 -34.586 0.815 -34.586 0.568 54.594
1105.87 0.575 54.062 0.81 -35.129 0.81 -35.129 0.575 54.062
1127.117 0.583 53.537 0.804 -35.666 0.804 -35.666 0.583 53.537
1148.365 0.591 53.016 0.799 -36.197 0.799 -36.197 0.591 53.016
1169.612 0.598 52.501 0.793 -36.723 0.793 -36.723 0.598 52.501
1190.86 0.605 51.992 0.788 -37.243 0.788 -37.243 0.605 51.992
1212.107 0.612 51.488 0.783 -37.757 0.783 -37.757 0.612 51.488
1233.355 0.619 50.989 0.777 -38.265 0.777 -38.265 0.619 50.989
1254.602 0.626 50.495 0.772 -38.768 0.772 -38.768 0.626 50.495
1275.85 0.633 50.007 0.766 -39.265 0.766 -39.265 0.633 50.007
1297.097 0.64 49.524 0.761 -39.757 0.761 -39.757 0.64 49.524
1318.345 0.646 49.046 0.755 -40.243 0.755 -40.243 0.646 49.046
1339.592 0.652 48.573 0.75 -40.724 0.75 -40.724 0.652 48.573
1360.84 0.659 48.106 0.744 -41.199 0.744 -41.199 0.659 48.106
1382.087 0.665 47.644 0.739 -41.669 0.739 -41.669 0.665 47.644
1403.335 0.671 47.187 0.734 -42.133 0.734 -42.133 0.671 47.187
1424.582 0.677 46.734 0.728 -42.592 0.728 -42.592 0.677 46.734
1445.83 0.683 46.287 0.723 -43.046 0.723 -43.046 0.683 46.287
1467.077 0.688 45.845 0.718 -43.495 0.718 -43.495 0.688 45.845
1488.325 0.694 45.408 0.712 -43.939 0.712 -43.939 0.694 45.408
1509.572 0.699 44.975 0.707 -44.377 0.707 -44.377 0.699 44.975
1530.82 0.705 44.548 0.702 -44.811 0.702 -44.811 0.705 44.548
1552.067 0.71 44.125 0.696 -45.24 0.696 -45.24 0.71 44.125
1573.315 0.715 43.707 0.691 -45.663 0.691 -45.663 0.715 43.707
1594.562 0.72 43.294 0.686 -46.082 0.686 -46.082 0.72 43.294
1615.81 0.725 42.885 0.681 -46.496 0.681 -46.496 0.725 42.885
1637.057 0.73 42.481 0.675 -46.905 0.675 -46.905 0.73 42.481
1658.305 0.735 42.081 0.67 -47.31 0.67 -47.31 0.735 42.081
1679.552 0.74 41.686 0.665 -47.71 0.665 -47.71 0.74 41.686
1700.8 0.744 41.295 0.66 -48.106 0.66 -48.106 0.744 41.295
1722.047 0.749 40.909 0.655 -48.497 0.655 -48.497 0.749 40.909
1743.295 0.753 40.527 0.65 -48.883 0.65 -48.883 0.753 40.527
1764.542 0.758 40.149 0.645 -49.265 0.645 -49.265 0.758 40.149
1785.79 0.762 39.775 0.64 -49.643 0.64 -49.643 0.762 39.775
1807.037 0.766 39.406 0.635 -50.016 0.635 -50.016 0.766 39.406
1828.285 0.77 39.04 0.63 -50.386 0.63 -50.386 0.77 39.04
1849.532 0.774 38.679 0.625 -50.751 0.625 -50.751 0.774 38.679
1870.78 0.778 38.322 0.62 -51.112 0.62 -51.112 0.778 38.322
1892.027 0.782 37.969 0.615 -51.468 0.615 -51.468 0.782 37.969
1913.275 0.786 37.619 0.61 -51.821 0.61 -51.821 0.786 37.619
1934.522 0.79 37.273 0.606 -52.17 0.606 -52.17 0.79 37.273
1955.77 0.794 36.932 0.601 -52.515 0.601 -52.515 0.794 36.932
1977.017 0.797 36.594 0.596 -52.856 0.596 -52.856 0.797 36.594
1998.265 0.801 36.259 0.591 -53.194 0.591 -53.194 0.801 36.259
2019.512 0.804 35.928 0.587 -53.527 0.587 -53.527 0.804 35.928
2040.76 0.808 35.601 0.582 -53.857 0.582 -53.857 0.808 35.601
2062.007 0.811 35.278 0.578 -54.184 0.578 -54.184 0.811 35.278
2083.255 0.814 34.957 0.573 -54.506 0.573 -54.506 0.814 34.957
2104.502 0.817 34.641 0.568 -54.825 0.568 -54.825 0.817 34.641
2125.75 0.821 34.327 0.564 -55.141 0.564 -55.141 0.821 34.327
2146.997 0.824 34.018 0.559 -55.453 0.559 -55.453 0.824 34.018
2168.245 0.827 33.711 0.555 -55.762 0.555 -55.762 0.827 33.711
2189.492 0.83 33.407 0.551 -56.068 0.551 -56.068 0.83 33.407
2210.74 0.833 33.107 0.546 -56.37 0.546 -56.37 0.833 33.107
2231.987 0.836 32.81 0.542 -56.669 0.542 -56.669 0.836 32.81
2253.235 0.838 32.516 0.538 -56.965 0.538 -56.965 0.838 32.516
2274.482 0.841 32.225 0.533 -57.257 0.533 -57.257 0.841 32.225
2295.73 0.844 31.938 0.529 -57.547 0.529 -57.547 0.844 31.938
2316.977 0.847 31.653 0.525 -57.833 0.525 -57.833 0.847 31.653
2338.225 0.849 31.371 0.521 -58.117 0.521 -58.117 0.849 31.371
2359.472 0.852 31.092 0.516 -58.397 0.516 -58.397 0.852 31.092
2380.72 0.854 30.815 0.512 -58.675 0.512 -58.675 0.854 30.815
2401.967 0.857 30.542 0.508 -58.949 0.508 -58.949 0.857 30.542
2423.215 0.859 30.272 0.504 -59.221 0.504 -59.221 0.859 30.272
2444.462 0.862 30.004 0.5 -59.49 0.5 -59.49 0.862 30.004
2465.71 0.864 29.738 0.496 -59.756 0.496 -59.756 0.864 29.738
2486.957 0.866 29.476 0.492 -60.019 0.492 -60.019 0.866 29.476
2508.205 0.868 29.216 0.488 -60.28 0.488 -60.28 0.868 29.216
2529.452 0.871 28.959 0.484 -60.538 0.484 -60.538 0.871 28.959
2550.7 0.873 28.704 0.48 -60.794 0.48 -60.794 0.873 28.704
2571.947 0.875 28.452 0.476 -61.047 0.476 -61.047 0.875 28.452
2593.195 0.877 28.202 0.473 -61.297 0.473 -61.297 0.877 28.202
2614.442 0.879 27.954 0.469 -61.545 0.469 -61.545 0.879 27.954
2635.69 0.881 27.709 0.465 -61.79 0.465 -61.79 0.881 27.709
2656.937 0.883 27.467 0.461 -62.033 0.461 -62.033 0.883 27.467
2678.185 0.885 27.226 0.458 -62.274 0.458 -62.274 0.885 27.226
2699.432 0.887 26.988 0.454 -62.512 0.454 -62.512 0.887 26.988
2720.68 0.889 26.753 0.45 -62.748 0.45 -62.748 0.889 26.753
2741.927 0.891 26.519 0.447 -62.981 0.447 -62.981 0.891 26.519
2763.175 0.893 26.288 0.443 -63.213 0.443 -63.213 0.893 26.288
2784.422 0.895 26.058 0.439 -63.442 0.439 -63.442 0.895 26.058
2805.67 0.896 25.831 0.436 -63.669 0.436 -63.669 0.896 25.831
2826.917 0.898 25.606 0.432 -63.893 0.432 -63.893 0.898 25.606
2848.165 0.9 25.384 0.429 -64.116 0.429 -64.116 0.9 25.384
2869.412 0.901 25.163 0.425 -64.336 0.425 -64.336 0.901 25.163
2890.66 0.903 24.944 0.422 -64.554 0.422 -64.554 0.903 24.944
2911.907 0.905 24.727 0.418 -64.771 0.418 -64.771 0.905 24.727
2933.155 0.906 24.512 0.415 -64.985 0.415 -64.985 0.906 24.512
2954.402 0.908 24.299 0.412 -65.197 0.412 -65.197 0.908 24.299
2975.65 0.909 24.088 0.408 -65.407 0.408 -65.407 0.909 24.088
2996.897 0.911 23.879 0.405 -65.616 0.405 -65.616 0.911 23.879
3018.145 0.912 23.671 0.402 -65.822 0.402 -65.822 0.912 23.671
3039.392 0.914 23.466 0.398 -66.027 0.398 -66.027 0.914 23.466
3060.64 0.915 23.262 0.395 -66.229 0.395 -66.229 0.915 23.262
3081.887 0.917 23.06 0.392 -66.43 0.392 -66.43 0.917 23.06
3103.135 0.918 22.86 0.388 -66.629 0.388 -66.629 0.918 22.86
3124.382 0.919 22.661 0.385 -66.826 0.385 -66.826 0.919 22.661
3145.63 0.921 22.464 0.382 -67.021 0.382 -67.021 0.921 22.464
3166.877 0.922 22.269 0.379 -67.215 0.379 -67.215 0.922 22.269
3188.125 0.923 22.076 0.376 -67.407 0.376 -67.407 0.923 22.076
3209.372 0.925 21.884 0.373 -67.597 0.373 -67.597 0.925 21.884
3230.62 0.926 21.693 0.37 -67.786 0.37 -67.786 0.926 21.693
3251.867 0.927 21.505 0.367 -67.973 0.367 -67.973 0.927 21.505
3273.115 0.928 21.318 0.364 -68.158 0.364 -68.158 0.928 21.318
3294.362 0.929 21.132 0.361 -68.341 0.361 -68.341 0.929 21.132
3315.61 0.931 20.948 0.358 -68.523 0.358 -68.523 0.931 20.948
3336.857 0.932 20.765 0.355 -68.704 0.355 -68.704 0.932 20.765
3358.105 0.933 20.584 0.352 -68.883 0.352 -68.883 0.933 20.584
3379.352 0.934 20.404 0.349 -69.06 0.349 -69.06 0.934 20.404
3400.6 0.935 20.226 0.346 -69.236 0.346 -69.236 0.935 20.226
3421.847 0.936 20.049 0.343 -69.41 0.343 -69.41 0.936 20.049
3443.095 0.937 19.874 0.34 -69.583 0.34 -69.583 0.937 19.874
3464.342 0.938 19.7 0.337 -69.754 0.337 -69.754 0.938 19.7
3485.59 0.939 19.527 0.334 -69.924 0.334 -69.924 0.939 19.527
3506.837 0.94 19.356 0.331 -70.092 0.331 -70.092 0.94 19.356
3528.085 0.941 19.186 0.329 -70.259 0.329 -70.259 0.941 19.186
3549.332 0.942 19.017 0.326 -70.425 0.326 -70.425 0.942 19.017
3570.58 0.943 18.849 0.323 -70.589 0.323 -70.589 0.943 18.849
3591.827 0.944 18.683 0.32 -70.752 0.32 -70.752 0.944 18.683
3613.075 0.945 18.518 0.318 -70.914 0.318 -70.914 0.945 18.518
3634.322 0.946 18.355 0.315 -71.074 0.315 -71.074 0.946 18.355
3655.57 0.947 18.192 0.312 -71.233 0.312 -71.233 0.947 18.192
3676.817 0.948 18.031 0.31 -71.39 0.31 -71.39 0.948 18.031
3698.065 0.949 17.871 0.307 -71.546 0.307 -71.546 0.949 17.871
3719.312 0.949 17.712 0.304 -71.701 0.304 -71.701 0.949 17.712
3740.56 0.95 17.554 0.302 -71.855 0.302 -71.855 0.95 17.554
3761.807 0.951 17.397 0.299 -72.008 0.299 -72.008 0.951 17.397
3783.055 0.952 17.242 0.296 -72.159 0.296 -72.159 0.952 17.242
3804.302 0.953 17.088 0.294 -72.309 0.294 -72.309 0.953 17.088
3825.55 0.954 16.934 0.291 -72.458 0.291 -72.458 0.954 16.934
3846.797 0.954 16.782 0.289 -72.605 0.289 -72.605 0.954 16.782
3868.045 0.955 16.631 0.286 -72.752 0.286 -72.752 0.955 16.631
3889.292 0.956 16.481 0.284 -72.897 0.284 -72.897 0.956 16.481
3910.54 0.957 16.332 0.281 -73.041 0.281 -73.041 0.957 16.332
3931.787 0.957 16.184 0.279 -73.184 0.279 -73.184 0.957 16.184
3953.035 0.958 16.037 0.276 -73.326 0.276 -73.326 0.958 16.037
3974.282 0.959 15.891 0.274 -73.466 0.274 -73.466 0.959 15.891
3995.53 0.959 15.746 0.271 -73.606 0.271 -73.606 0.959 15.746
4016.777 0.96 15.602 0.269 -73.744 0.269 -73.744 0.96 15.602
4038.025 0.961 15.459 0.267 -73.882 0.267 -73.882 0.961 15.459
4059.272 0.961 15.317 0.264 -74.018 0.264 -74.018 0.961 15.317
4080.52 0.962 15.176 0.262 -74.153 0.262 -74.153 0.962 15.176
4101.767 0.963 15.036 0.259 -74.287 0.259 -74.287 0.963 15.036
4123.015 0.963 14.896 0.257 -74.42 0.257 -74.42 0.963 14.896
4144.262 0.964 14.758 0.255 -74.552 0.255 -74.552 0.964 14.758
4165.51 0.965 14.62 0.252 -74.683 0.252 -74.683 0.965 14.62
4186.757 0.965 14.484 0.25 -74.813 0.25 -74.813 0.965 14.484
4208.005 0.966 14.348 0.248 -74.942 0.248 -74.942 0.966 14.348
4229.252 0.966 14.213 0.246 -75.069 0.246 -75.069 0.966 14.213
4250.5 0.967 14.079 0.243 -75.196 0.243 -75.196 0.967 14.079
4271.747 0.967 13.946 0.241 -75.322 0.241 -75.322 0.967 13.946
4292.995 0.968 13.814 0.239 -75.447 0.239 -75.447 0.968 13.814
4314.242 0.969 13.682 0.237 -75.571 0.237 -75.571 0.969 13.682
4335.49 0.969 13.552 0.234 -75.693 0.234 -75.693 0.969 13.552
4356.737 0.97 13.422 0.232 -75.815 0.232 -75.815 0.97 13.422
4377.985 0.97 13.293 0.23 -75.936 0.23 -75.936 0.97 13.293
4399.232 0.971 13.165 0.228 -76.056 0.228 -76.056 0.971 13.165
4420.48 0.971 13.037 0.226 -76.175 0.226 -76.175 0.971 13.037
4441.727 0.972 12.91 0.223 -76.293 0.223 -76.293 0.972 12.91
4462.975 0.972 12.784 0.221 -76.41 0.221 -76.41 0.972 12.784
4484.222 0.973 12.659 0.219 -76.526 0.219 -76.526 0.973 12.659
4505.47 0.973 12.535 0.217 -76.641 0.217 -76.641 0.973 12.535
4526.717 0.974 12.411 0.215 -76.755 0.215 -76.755 0.974 12.411
4547.965 0.974 12.288 0.213 -76.869 0.213 -76.869 0.974 12.288
4569.212 0.974 12.166 0.211 -76.981 0.211 -76.981 0.974 12.166
4590.46 0.975 12.044 0.209 -77.093 0.209 -77.093 0.975 12.044
4611.707 0.975 11.923 0.207 -77.203 0.207 -77.203 0.975 11.923
4632.955 0.976 11.803 0.205 -77.313 0.205 -77.313 0.976 11.803
4654.203 0.976 11.683 0.203 -77.421 0.203 -77.421 0.976 11.683
4675.45 0.977 11.565 0.2 -77.529 0.2 -77.529 0.977 11.565
4696.698 0.977 11.446 0.198 -77.636 0.198 -77.636 0.977 11.446
4717.945 0.977 11.329 0.196 -77.742 0.196 -77.742 0.977 11.329
4739.193 0.978 11.212 0.194 -77.847 0.194 -77.847 0.978 11.212
4760.44 0.978 11.096 0.192 -77.951 0.192 -77.951 0.978 11.096
4781.688 0.978 10.98 0.19 -78.054 0.19 -78.054 0.978 10.98
4802.935 0.979 10.865 0.189 -78.157 0.189 -78.157 0.979 10.865
4824.183 0.979 10.751 0.187 -78.258 0.187 -78.258 0.979 10.751
4845.43 0.98 10.637 0.185 -78.359 0.185 -78.359 0.98 10.637
4866.678 0.98 10.524 0.183 -78.458 0.183 -78.458 0.98 10.524
4887.925 0.98 10.412 0.181 -78.557 0.181 -78.557 0.98 10.412
4909.173 0.981 10.3 0.179 -78.655 0.179 -78.655 0.981 10.3
4930.42 0.981 10.189 0.177 -78.752 0.177 -78.752 0.981 10.189
4951.668 0.981 10.078 0.175 -78.848 0.175 -78.848 0.981 10.078
4972.915 0.982 9.968 0.173 -78.943 0.173 -78.943 0.982 9.968
4994.163 0.982 9.858 0.171 -79.037 0.171 -79.037 0.982 9.858
5015.41 0.982 9.749 0.169 -79.13 0.169 -79.13 0.982 9.749
5036.658 0.983 9.641 0.168 -79.222 0.168 -79.222 0.983 9.641
5057.905 0.983 9.533 0.166 -79.314 0.166 -79.314 0.983 9.533
5079.153 0.983 9.426 0.164 -79.404 0.164 -79.404 0.983 9.426
5100.4 0.983 9.319 0.162 -79.494 0.162 -79.494 0.983 9.319
5121.648 0.984 9.213 0.16 -79.583 0.16 -79.583 0.984 9.213
5142.895 0.984 9.107 0.158 -79.67 0.158 -79.67 0.984 9.107
5164.143 0.984 9.002 0.157 -79.757 0.157 -79.757 0.984 9.002
5185.39 0.985 8.897 0.155 -79.843 0.155 -79.843 0.985 8.897
5206.638 0.985 8.793 0.153 -79.928 0.153 -79.928 0.985 8.793
5227.885 0.985 8.69 0.151 -80.012 0.151 -80.012 0.985 8.69
5249.133 0.985 8.586 0.149 -80.095 0.149 -80.095 0.985 8.586
5270.38 0.986 8.484 0.148 -80.177 0.148 -80.177 0.986 8.484
5291.628 0.986 8.382 0.146 -80.257 0.146 -80.257 0.986 8.382
5312.875 0.986 8.28 0.144 -80.337 0.144 -80.337 0.986 8.28
5334.123 0.986 8.179 0.142 -80.416 0.142 -80.416 0.986 8.179
5355.37 0.987 8.078 0.141 -80.494 0.141 -80.494 0.987 8.078
5376.618 0.987 7.978 0.139 -80.571 0.139 -80.571 0.987 7.978
5397.865 0.987 7.878 0.137 -80.647 0.137 -80.647 0.987 7.878
5419.113 0.987 7.779 0.135 -80.722 0.135 -80.722 0.987 7.779
5440.36 0.987 7.68 0.134 -80.795 0.134 -80.795 0.987 7.68
5461.608 0.988 7.582 0.132 -80.868 0.132 -80.868 0.988 7.582
5482.855 0.988 7.484 0.13 -80.94 0.13 -80.94 0.988 7.484
5504.103 0.988 7.387 0.129 -81.01 0.129 -81.01 0.988 7.387
5525.35 0.988 7.29 0.127 -81.079 0.127 -81.079 0.988 7.29
5546.598 0.989 7.193 0.125 -81.147 0.125 -81.147 0.989 7.193
5567.845 0.989 7.097 0.124 -81.214 0.124 -81.214 0.989 7.097
5589.093 0.989 7.001 0.122 -81.28 0.122 -81.28 0.989 7.001
5610.34 0.989 6.906 0.12 -81.344 0.12 -81.344 0.989 6.906
5631.588 0.989 6.811 0.119 -81.408 0.119 -81.408 0.989 6.811
5652.835 0.989 6.717 0.117 -81.47 0.117 -81.47 0.989 6.717
5674.083 0.99 6.623 0.115 -81.53 0.115 -81.53 0.99 6.623
5695.33 0.99 6.529 0.114 -81.59 0.114 -81.59 0.99 6.529
5716.578 0.99 6.436 0.112 -81.648 0.112 -81.648 0.99 6.436
5737.825 0.99 6.343 0.111 -81.704 0.111 -81.704 0.99 6.343
5759.073 0.99 6.251 0.109 -81.759 0.109 -81.759 0.99 6.251
5780.32 0.99 6.159 0.107 -81.813 0.107 -81.813 0.99 6.159
5801.568 0.991 6.067 0.106 -81.865 0.106 -81.865 0.991 6.067
5822.815 0.991 5.976 0.104 -81.916 0.104 -81.916 0.991 5.976
5844.063 0.991 5.885 0.103 -81.965 0.103 -81.965 0.991 5.885
5865.31 0.991 5.795 0.101 -82.013 0.101 -82.013 0.991 5.795
5886.558 0.991 5.704 0.099 -82.058 0.099 -82.058 0.991 5.704
5907.805 0.991 5.615 0.098 -82.102 0.098 -82.102 0.991 5.615
5929.053 0.991 5.525 0.096 -82.145 0.096 -82.145 0.991 5.525
5950.3 0.992 5.436 0.095 -82.185 0.095 -82.185 0.992 5.436
5971.548 0.992 5.348 0.093 -82.224 0.093 -82.224 0.992 5.348
5992.795 0.992 5.26 0.092 -82.26 0.092 -82.26 0.992 5.26
6014.043 0.992 5.172 0.09 -82.295 0.09 -82.295 0.992 5.172
6035.29 0.992 5.084 0.089 -82.327 0.089 -82.327 0.992 5.084
6056.538 0.992 4.997 0.087 -82.358 0.087 -82.358 0.992 4.997
6077.785 0.992 4.91 0.086 -82.386 0.086 -82.386 0.992 4.91
6099.033 0.992 4.824 0.084 -82.411 0.084 -82.411 0.992 4.824
6120.28 0.993 4.737 0.083 -82.435 0.083 -82.435 0.993 4.737
6141.528 0.993 4.651 0.081 -82.455 0.081 -82.455 0.993 4.651
6162.775 0.993 4.566 0.08 -82.473 0.08 -82.473 0.993 4.566
6184.023 0.993 4.481 0.078 -82.488 0.078 -82.488 0.993 4.481
6205.27 0.993 4.396 0.077 -82.501 0.077 -82.501 0.993 4.396
6226.518 0.993 4.311 0.075 -82.51 0.075 -82.51 0.993 4.311
6247.765 0.993 4.227 0.074 -82.516 0.074 -82.516 0.993 4.227
6269.013 0.993 4.143 0.072 -82.519 0.072 -82.519 0.993 4.143
6290.26 0.993 4.06 0.071 -82.518 0.071 -82.518 0.993 4.06
6311.508 0.993 3.977 0.069 -82.514 0.069 -82.514 0.993 3.977
6332.755 0.993 3.894 0.068 -82.506 0.068 -82.506 0.993 3.894
6354.003 0.993 3.811 0.067 -82.493 0.067 -82.493 0.993 3.811
6375.25 0.994 3.729 0.065 -82.477 0.065 -82.477 0.994 3.729
6396.498 0.994 3.647 0.064 -82.456 0.064 -82.456 0.994 3.647
6417.745 0.994 3.565 0.062 -82.43 0.062 -82.43 0.994 3.565
6438.993 0.994 3.483 0.061 -82.399 0.061 -82.399 0.994 3.483
6460.24 0.994 3.402 0.06 -82.362 0.06 -82.362 0.994 3.402
6481.488 0.994 3.321 0.058 -82.32 0.058 -82.32 0.994 3.321
6502.735 0.994 3.241 0.057 -82.272 0.057 -82.272 0.994 3.241
6523.983 0.994 3.161 0.055 -82.217 0.055 -82.217 0.994 3.161
6545.23 0.994 3.081 0.054 -82.155 0.054 -82.155 0.994 3.081
6566.478 0.994 3.001 0.053 -82.086 0.053 -82.086 0.994 3.001
6587.725 0.994 2.922 0.051 -82.009 0.051 -82.009 0.994 2.922
6608.973 0.994 2.842 0.05 -81.923 0.05 -81.923 0.994 2.842
6630.22 0.994 2.764 0.048 -81.828 0.048 -81.828 0.994 2.764
6651.468 0.994 2.685 0.047 -81.723 0.047 -81.723 0.994 2.685
6672.715 0.994 2.607 0.046 -81.607 0.046 -81.607 0.994 2.607
6693.963 0.994 2.529 0.044 -81.48 0.044 -81.48 0.994 2.529
6715.21 0.994 2.451 0.043 -81.34 0.043 -81.34 0.994 2.451
6736.458 0.994 2.373 0.042 -81.186 0.042 -81.186 0.994 2.373
6757.705 0.995 2.296 0.04 -81.017 0.04 -81.017 0.995 2.296
6778.953 0.995 2.219 0.039 -80.832 0.039 -80.832 0.995 2.219
