! Coilcraft 0302CS-11N Chip Inductor				
! 18 February 2004
# MHZ S MA R 50

1 5.778e-3 6.791 0.994 -0.039 0.994 -0.039 5.778e-3 6.791
20.497 0.015 64.981 0.994 -0.807 0.994 -0.807 0.015 64.981
39.995 0.028 74.849 0.993 -1.573 0.993 -1.573 0.028 74.849
59.492 0.041 78.118 0.992 -2.339 0.992 -2.339 0.041 78.118
78.99 0.055 79.474 0.991 -3.103 0.991 -3.103 0.055 79.474
98.487 0.068 80.022 0.991 -3.867 0.991 -3.867 0.068 80.022
117.985 0.081 80.153 0.989 -4.629 0.989 -4.629 0.081 80.153
137.482 0.094 80.041 0.988 -5.389 0.988 -5.389 0.094 80.041
156.98 0.107 79.776 0.987 -6.148 0.987 -6.148 0.107 79.776
176.477 0.12 79.408 0.985 -6.905 0.985 -6.905 0.12 79.408
195.975 0.134 78.969 0.983 -7.66 0.983 -7.66 0.134 78.969
215.473 0.146 78.477 0.981 -8.412 0.981 -8.412 0.146 78.477
234.97 0.159 77.946 0.979 -9.161 0.979 -9.161 0.159 77.946
254.468 0.172 77.387 0.977 -9.908 0.977 -9.908 0.172 77.387
273.965 0.185 76.805 0.975 -10.651 0.975 -10.651 0.185 76.805
293.462 0.198 76.206 0.972 -11.392 0.972 -11.392 0.198 76.206
312.96 0.21 75.593 0.969 -12.129 0.969 -12.129 0.21 75.593
332.457 0.223 74.97 0.966 -12.862 0.966 -12.862 0.223 74.97
351.955 0.235 74.339 0.964 -13.592 0.964 -13.592 0.235 74.339
371.452 0.247 73.703 0.96 -14.317 0.96 -14.317 0.247 73.703
390.95 0.26 73.062 0.957 -15.039 0.957 -15.039 0.26 73.062
410.447 0.272 72.418 0.954 -15.756 0.954 -15.756 0.272 72.418
429.945 0.284 71.772 0.95 -16.469 0.95 -16.469 0.284 71.772
449.443 0.295 71.126 0.947 -17.178 0.947 -17.178 0.295 71.126
468.94 0.307 70.479 0.943 -17.882 0.943 -17.882 0.307 70.479
488.438 0.319 69.832 0.939 -18.58 0.939 -18.58 0.319 69.832
507.935 0.33 69.187 0.935 -19.275 0.935 -19.275 0.33 69.187
527.433 0.342 68.543 0.931 -19.964 0.931 -19.964 0.342 68.543
546.93 0.353 67.902 0.927 -20.647 0.927 -20.647 0.353 67.902
566.427 0.364 67.263 0.923 -21.326 0.923 -21.326 0.364 67.263
585.925 0.375 66.627 0.918 -21.999 0.918 -21.999 0.375 66.627
605.422 0.385 65.994 0.914 -22.667 0.914 -22.667 0.385 65.994
624.92 0.396 65.364 0.909 -23.329 0.909 -23.329 0.396 65.364
644.417 0.407 64.738 0.905 -23.986 0.905 -23.986 0.407 64.738
663.915 0.417 64.117 0.9 -24.637 0.9 -24.637 0.417 64.117
683.412 0.427 63.499 0.895 -25.282 0.895 -25.282 0.427 63.499
702.91 0.437 62.885 0.89 -25.922 0.89 -25.922 0.437 62.885
722.407 0.447 62.277 0.885 -26.556 0.885 -26.556 0.447 62.277
741.905 0.457 61.672 0.88 -27.184 0.88 -27.184 0.457 61.672
761.402 0.467 61.073 0.875 -27.806 0.875 -27.806 0.467 61.073
780.9 0.476 60.478 0.87 -28.422 0.87 -28.422 0.476 60.478
800.397 0.485 59.889 0.865 -29.032 0.865 -29.032 0.485 59.889
819.895 0.495 59.304 0.86 -29.636 0.86 -29.636 0.495 59.304
839.392 0.504 58.725 0.855 -30.234 0.855 -30.234 0.504 58.725
858.89 0.513 58.151 0.85 -30.826 0.85 -30.826 0.513 58.151
878.387 0.521 57.582 0.844 -31.412 0.844 -31.412 0.521 57.582
897.885 0.53 57.018 0.839 -31.992 0.839 -31.992 0.53 57.018
917.382 0.538 56.46 0.834 -32.566 0.834 -32.566 0.538 56.46
936.88 0.547 55.907 0.828 -33.134 0.828 -33.134 0.547 55.907
956.377 0.555 55.36 0.823 -33.696 0.823 -33.696 0.555 55.36
975.875 0.563 54.818 0.817 -34.252 0.817 -34.252 0.563 54.818
995.372 0.571 54.281 0.812 -34.801 0.812 -34.801 0.571 54.281
1014.87 0.579 53.75 0.807 -35.345 0.807 -35.345 0.579 53.75
1034.367 0.586 53.225 0.801 -35.884 0.801 -35.884 0.586 53.225
1053.865 0.594 52.704 0.796 -36.416 0.796 -36.416 0.594 52.704
1073.362 0.601 52.19 0.79 -36.942 0.79 -36.942 0.601 52.19
1092.86 0.608 51.68 0.785 -37.463 0.785 -37.463 0.608 51.68
1112.357 0.615 51.177 0.779 -37.977 0.779 -37.977 0.615 51.177
1131.855 0.622 50.678 0.774 -38.486 0.774 -38.486 0.622 50.678
1151.352 0.629 50.185 0.768 -38.989 0.768 -38.989 0.629 50.185
1170.85 0.636 49.697 0.763 -39.487 0.763 -39.487 0.636 49.697
1190.347 0.643 49.215 0.757 -39.979 0.757 -39.979 0.643 49.215
1209.845 0.649 48.738 0.752 -40.465 0.752 -40.465 0.649 48.738
1229.342 0.655 48.266 0.746 -40.945 0.746 -40.945 0.655 48.266
1248.84 0.662 47.799 0.741 -41.421 0.741 -41.421 0.662 47.799
1268.337 0.668 47.338 0.735 -41.89 0.735 -41.89 0.668 47.338
1287.835 0.674 46.881 0.73 -42.355 0.73 -42.355 0.674 46.881
1307.332 0.68 46.43 0.725 -42.814 0.725 -42.814 0.68 46.43
1326.83 0.685 45.984 0.719 -43.267 0.719 -43.267 0.685 45.984
1346.327 0.691 45.543 0.714 -43.716 0.714 -43.716 0.691 45.543
1365.825 0.697 45.107 0.708 -44.159 0.708 -44.159 0.697 45.107
1385.322 0.702 44.675 0.703 -44.597 0.703 -44.597 0.702 44.675
1404.82 0.708 44.249 0.698 -45.03 0.698 -45.03 0.708 44.249
1424.317 0.713 43.827 0.693 -45.458 0.693 -45.458 0.713 43.827
1443.815 0.718 43.41 0.687 -45.881 0.687 -45.881 0.718 43.41
1463.312 0.723 42.998 0.682 -46.3 0.682 -46.3 0.723 42.998
1482.81 0.728 42.591 0.677 -46.713 0.677 -46.713 0.728 42.591
1502.307 0.733 42.188 0.672 -47.122 0.672 -47.122 0.733 42.188
1521.805 0.738 41.79 0.666 -47.525 0.666 -47.525 0.738 41.79
1541.302 0.742 41.396 0.661 -47.925 0.661 -47.925 0.742 41.396
1560.8 0.747 41.007 0.656 -48.319 0.656 -48.319 0.747 41.007
1580.297 0.751 40.622 0.651 -48.709 0.651 -48.709 0.751 40.622
1599.795 0.756 40.241 0.646 -49.095 0.646 -49.095 0.756 40.241
1619.292 0.76 39.865 0.641 -49.476 0.641 -49.476 0.76 39.865
1638.79 0.764 39.493 0.636 -49.852 0.636 -49.852 0.764 39.493
1658.287 0.769 39.125 0.631 -50.225 0.631 -50.225 0.769 39.125
1677.785 0.773 38.761 0.626 -50.593 0.626 -50.593 0.773 38.761
1697.282 0.777 38.401 0.621 -50.957 0.621 -50.957 0.777 38.401
1716.78 0.781 38.045 0.616 -51.317 0.616 -51.317 0.781 38.045
1736.277 0.785 37.694 0.611 -51.672 0.611 -51.672 0.785 37.694
1755.775 0.788 37.346 0.607 -52.024 0.607 -52.024 0.788 37.346
1775.272 0.792 37.002 0.602 -52.372 0.602 -52.372 0.792 37.002
1794.77 0.796 36.662 0.597 -52.716 0.597 -52.716 0.796 36.662
1814.267 0.799 36.325 0.592 -53.055 0.592 -53.055 0.799 36.325
1833.765 0.803 35.993 0.588 -53.391 0.588 -53.391 0.803 35.993
1853.262 0.806 35.664 0.583 -53.724 0.583 -53.724 0.806 35.664
1872.76 0.81 35.338 0.578 -54.052 0.578 -54.052 0.81 35.338
1892.257 0.813 35.016 0.574 -54.377 0.574 -54.377 0.813 35.016
1911.755 0.816 34.698 0.569 -54.699 0.569 -54.699 0.816 34.698
1931.252 0.819 34.383 0.565 -55.016 0.565 -55.016 0.819 34.383
1950.75 0.822 34.071 0.56 -55.331 0.56 -55.331 0.822 34.071
1970.247 0.826 33.763 0.556 -55.642 0.556 -55.642 0.826 33.763
1989.745 0.829 33.458 0.551 -55.949 0.551 -55.949 0.829 33.458
2009.242 0.832 33.157 0.547 -56.253 0.547 -56.253 0.832 33.157
2028.74 0.834 32.858 0.543 -56.554 0.543 -56.554 0.834 32.858
2048.237 0.837 32.563 0.538 -56.851 0.538 -56.851 0.837 32.563
2067.735 0.84 32.271 0.534 -57.146 0.534 -57.146 0.84 32.271
2087.232 0.843 31.982 0.53 -57.437 0.53 -57.437 0.843 31.982
2106.73 0.846 31.696 0.525 -57.725 0.525 -57.725 0.846 31.696
2126.227 0.848 31.413 0.521 -58.01 0.521 -58.01 0.848 31.413
2145.725 0.851 31.132 0.517 -58.292 0.517 -58.292 0.851 31.132
2165.222 0.853 30.855 0.513 -58.571 0.513 -58.571 0.853 30.855
2184.72 0.856 30.581 0.509 -58.847 0.509 -58.847 0.856 30.581
2204.217 0.858 30.309 0.505 -59.12 0.505 -59.12 0.858 30.309
2223.715 0.861 30.041 0.501 -59.39 0.501 -59.39 0.861 30.041
2243.212 0.863 29.774 0.497 -59.658 0.497 -59.658 0.863 29.774
2262.71 0.865 29.511 0.493 -59.922 0.493 -59.922 0.865 29.511
2282.207 0.868 29.25 0.489 -60.184 0.489 -60.184 0.868 29.25
2301.705 0.87 28.992 0.485 -60.443 0.485 -60.443 0.87 28.992
2321.202 0.872 28.737 0.481 -60.7 0.481 -60.7 0.872 28.737
2340.7 0.874 28.484 0.477 -60.954 0.477 -60.954 0.874 28.484
2360.197 0.876 28.233 0.473 -61.205 0.473 -61.205 0.876 28.233
2379.695 0.878 27.985 0.469 -61.454 0.469 -61.454 0.878 27.985
2399.192 0.881 27.74 0.465 -61.7 0.465 -61.7 0.881 27.74
2418.69 0.883 27.497 0.462 -61.944 0.462 -61.944 0.883 27.497
2438.187 0.885 27.256 0.458 -62.186 0.458 -62.186 0.885 27.256
2457.685 0.886 27.017 0.454 -62.425 0.454 -62.425 0.886 27.017
2477.182 0.888 26.781 0.451 -62.661 0.451 -62.661 0.888 26.781
2496.68 0.89 26.547 0.447 -62.896 0.447 -62.896 0.89 26.547
2516.177 0.892 26.315 0.443 -63.128 0.443 -63.128 0.892 26.315
2535.675 0.894 26.086 0.44 -63.358 0.44 -63.358 0.894 26.086
2555.172 0.896 25.858 0.436 -63.585 0.436 -63.585 0.896 25.858
2574.67 0.897 25.633 0.433 -63.81 0.433 -63.81 0.897 25.633
2594.167 0.899 25.41 0.429 -64.034 0.429 -64.034 0.899 25.41
2613.665 0.901 25.189 0.426 -64.255 0.426 -64.255 0.901 25.189
2633.162 0.902 24.97 0.422 -64.473 0.422 -64.473 0.902 24.97
2652.66 0.904 24.753 0.419 -64.69 0.419 -64.69 0.904 24.753
2672.157 0.906 24.538 0.415 -64.905 0.415 -64.905 0.906 24.538
2691.655 0.907 24.324 0.412 -65.118 0.412 -65.118 0.907 24.324
2711.152 0.909 24.113 0.409 -65.328 0.409 -65.328 0.909 24.113
2730.65 0.91 23.904 0.405 -65.537 0.405 -65.537 0.91 23.904
2750.147 0.912 23.696 0.402 -65.744 0.402 -65.744 0.912 23.696
2769.645 0.913 23.491 0.399 -65.949 0.399 -65.949 0.913 23.491
2789.142 0.915 23.287 0.395 -66.152 0.395 -66.152 0.915 23.287
2808.64 0.916 23.085 0.392 -66.353 0.392 -66.353 0.916 23.085
2828.137 0.917 22.885 0.389 -66.552 0.389 -66.552 0.917 22.885
2847.635 0.919 22.686 0.386 -66.75 0.386 -66.75 0.919 22.686
2867.132 0.92 22.489 0.383 -66.946 0.383 -66.946 0.92 22.489
2886.63 0.921 22.294 0.379 -67.14 0.379 -67.14 0.921 22.294
2906.127 0.923 22.101 0.376 -67.332 0.376 -67.332 0.923 22.101
2925.625 0.924 21.909 0.373 -67.522 0.373 -67.522 0.924 21.909
2945.122 0.925 21.719 0.37 -67.711 0.37 -67.711 0.925 21.719
2964.62 0.927 21.53 0.367 -67.898 0.367 -67.898 0.927 21.53
2984.117 0.928 21.343 0.364 -68.083 0.364 -68.083 0.928 21.343
3003.615 0.929 21.158 0.361 -68.267 0.361 -68.267 0.929 21.158
3023.112 0.93 20.974 0.358 -68.449 0.358 -68.449 0.93 20.974
3042.61 0.931 20.791 0.355 -68.63 0.355 -68.63 0.931 20.791
3062.107 0.932 20.61 0.352 -68.809 0.352 -68.809 0.932 20.61
3081.605 0.934 20.431 0.349 -68.987 0.349 -68.987 0.934 20.431
3101.102 0.935 20.253 0.346 -69.162 0.346 -69.162 0.935 20.253
3120.6 0.936 20.076 0.343 -69.337 0.343 -69.337 0.936 20.076
3140.097 0.937 19.901 0.34 -69.51 0.34 -69.51 0.937 19.901
3159.595 0.938 19.727 0.338 -69.681 0.338 -69.681 0.938 19.727
3179.092 0.939 19.555 0.335 -69.851 0.335 -69.851 0.939 19.555
3198.59 0.94 19.384 0.332 -70.02 0.332 -70.02 0.94 19.384
3218.087 0.941 19.214 0.329 -70.187 0.329 -70.187 0.941 19.214
3237.585 0.942 19.045 0.326 -70.353 0.326 -70.353 0.942 19.045
3257.082 0.943 18.878 0.324 -70.517 0.324 -70.517 0.943 18.878
3276.58 0.944 18.712 0.321 -70.68 0.321 -70.68 0.944 18.712
3296.077 0.945 18.548 0.318 -70.841 0.318 -70.841 0.945 18.548
3315.575 0.946 18.384 0.315 -71.002 0.315 -71.002 0.946 18.384
3335.072 0.946 18.222 0.313 -71.161 0.313 -71.161 0.946 18.222
3354.57 0.947 18.061 0.31 -71.318 0.31 -71.318 0.947 18.061
3374.067 0.948 17.902 0.307 -71.474 0.307 -71.474 0.948 17.902
3393.565 0.949 17.743 0.305 -71.63 0.305 -71.63 0.949 17.743
3413.062 0.95 17.586 0.302 -71.783 0.302 -71.783 0.95 17.586
3432.56 0.951 17.43 0.3 -71.936 0.3 -71.936 0.951 17.43
3452.057 0.952 17.275 0.297 -72.087 0.297 -72.087 0.952 17.275
3471.555 0.952 17.121 0.294 -72.237 0.294 -72.237 0.952 17.121
3491.052 0.953 16.968 0.292 -72.386 0.292 -72.386 0.953 16.968
3510.55 0.954 16.816 0.289 -72.533 0.289 -72.533 0.954 16.816
3530.047 0.955 16.665 0.287 -72.68 0.287 -72.68 0.955 16.665
3549.545 0.955 16.516 0.284 -72.825 0.284 -72.825 0.955 16.516
3569.042 0.956 16.367 0.282 -72.969 0.282 -72.969 0.956 16.367
3588.54 0.957 16.22 0.279 -73.112 0.279 -73.112 0.957 16.22
3608.037 0.958 16.073 0.277 -73.254 0.277 -73.254 0.958 16.073
3627.535 0.958 15.928 0.274 -73.394 0.274 -73.394 0.958 15.928
3647.032 0.959 15.783 0.272 -73.534 0.272 -73.534 0.959 15.783
3666.53 0.96 15.64 0.27 -73.672 0.27 -73.672 0.96 15.64
3686.027 0.96 15.497 0.267 -73.81 0.267 -73.81 0.96 15.497
3705.525 0.961 15.356 0.265 -73.946 0.265 -73.946 0.961 15.356
3725.022 0.962 15.215 0.262 -74.081 0.262 -74.081 0.962 15.215
3744.52 0.962 15.075 0.26 -74.215 0.26 -74.215 0.962 15.075
3764.017 0.963 14.936 0.258 -74.348 0.258 -74.348 0.963 14.936
3783.515 0.964 14.799 0.255 -74.48 0.255 -74.48 0.964 14.799
3803.012 0.964 14.662 0.253 -74.611 0.253 -74.611 0.964 14.662
3822.51 0.965 14.526 0.251 -74.741 0.251 -74.741 0.965 14.526
3842.007 0.965 14.391 0.249 -74.87 0.249 -74.87 0.965 14.391
3861.505 0.966 14.256 0.246 -74.998 0.246 -74.998 0.966 14.256
3881.002 0.967 14.123 0.244 -75.125 0.244 -75.125 0.967 14.123
3900.5 0.967 13.99 0.242 -75.25 0.242 -75.25 0.967 13.99
3919.997 0.968 13.858 0.24 -75.375 0.24 -75.375 0.968 13.858
3939.495 0.968 13.728 0.237 -75.499 0.237 -75.499 0.968 13.728
3958.992 0.969 13.598 0.235 -75.622 0.235 -75.622 0.969 13.598
3978.49 0.969 13.468 0.233 -75.744 0.233 -75.744 0.969 13.468
3997.987 0.97 13.34 0.231 -75.865 0.231 -75.865 0.97 13.34
4017.485 0.97 13.212 0.229 -75.985 0.229 -75.985 0.97 13.212
4036.982 0.971 13.085 0.226 -76.104 0.226 -76.104 0.971 13.085
4056.48 0.971 12.959 0.224 -76.222 0.224 -76.222 0.971 12.959
4075.977 0.972 12.834 0.222 -76.339 0.222 -76.339 0.972 12.834
4095.475 0.972 12.709 0.22 -76.455 0.22 -76.455 0.972 12.709
4114.972 0.973 12.585 0.218 -76.571 0.218 -76.571 0.973 12.585
4134.47 0.973 12.462 0.216 -76.685 0.216 -76.685 0.973 12.462
4153.967 0.974 12.34 0.214 -76.798 0.214 -76.798 0.974 12.34
4173.465 0.974 12.218 0.212 -76.911 0.212 -76.911 0.974 12.218
4192.962 0.975 12.097 0.21 -77.022 0.21 -77.022 0.975 12.097
4212.46 0.975 11.977 0.208 -77.133 0.208 -77.133 0.975 11.977
4231.957 0.975 11.857 0.205 -77.243 0.205 -77.243 0.975 11.857
4251.455 0.976 11.738 0.203 -77.352 0.203 -77.352 0.976 11.738
4270.952 0.976 11.62 0.201 -77.46 0.201 -77.46 0.976 11.62
4290.45 0.977 11.502 0.199 -77.567 0.199 -77.567 0.977 11.502
4309.947 0.977 11.386 0.197 -77.673 0.197 -77.673 0.977 11.386
4329.445 0.977 11.269 0.195 -77.778 0.195 -77.778 0.977 11.269
4348.942 0.978 11.154 0.193 -77.883 0.193 -77.883 0.978 11.154
4368.44 0.978 11.039 0.192 -77.986 0.192 -77.986 0.978 11.039
4387.937 0.979 10.925 0.19 -78.089 0.19 -78.089 0.979 10.925
4407.435 0.979 10.811 0.188 -78.191 0.188 -78.191 0.979 10.811
4426.932 0.979 10.698 0.186 -78.291 0.186 -78.291 0.979 10.698
4446.43 0.98 10.585 0.184 -78.391 0.184 -78.391 0.98 10.585
4465.927 0.98 10.474 0.182 -78.49 0.182 -78.49 0.98 10.474
4485.425 0.98 10.362 0.18 -78.589 0.18 -78.589 0.98 10.362
4504.922 0.981 10.252 0.178 -78.686 0.178 -78.686 0.981 10.252
4524.42 0.981 10.142 0.176 -78.782 0.176 -78.782 0.981 10.142
4543.917 0.981 10.032 0.174 -78.878 0.174 -78.878 0.981 10.032
4563.415 0.982 9.923 0.172 -78.973 0.172 -78.973 0.982 9.923
4582.912 0.982 9.815 0.171 -79.066 0.171 -79.066 0.982 9.815
4602.41 0.982 9.707 0.169 -79.159 0.169 -79.159 0.982 9.707
4621.908 0.983 9.6 0.167 -79.251 0.167 -79.251 0.983 9.6
4641.405 0.983 9.494 0.165 -79.342 0.165 -79.342 0.983 9.494
4660.903 0.983 9.387 0.163 -79.433 0.163 -79.433 0.983 9.387
4680.4 0.984 9.282 0.161 -79.522 0.161 -79.522 0.984 9.282
4699.898 0.984 9.177 0.16 -79.61 0.16 -79.61 0.984 9.177
4719.395 0.984 9.072 0.158 -79.698 0.158 -79.698 0.984 9.072
4738.893 0.984 8.968 0.156 -79.784 0.156 -79.784 0.984 8.968
4758.39 0.985 8.865 0.154 -79.87 0.154 -79.87 0.985 8.865
4777.888 0.985 8.762 0.152 -79.955 0.152 -79.955 0.985 8.762
4797.385 0.985 8.66 0.151 -80.039 0.151 -80.039 0.985 8.66
4816.883 0.985 8.558 0.149 -80.121 0.149 -80.121 0.985 8.558
4836.38 0.986 8.456 0.147 -80.203 0.147 -80.203 0.986 8.456
4855.878 0.986 8.355 0.145 -80.284 0.145 -80.284 0.986 8.355
4875.375 0.986 8.255 0.144 -80.364 0.144 -80.364 0.986 8.255
4894.873 0.986 8.155 0.142 -80.443 0.142 -80.443 0.986 8.155
4914.37 0.987 8.055 0.14 -80.521 0.14 -80.521 0.987 8.055
4933.868 0.987 7.956 0.138 -80.598 0.138 -80.598 0.987 7.956
4953.365 0.987 7.858 0.137 -80.674 0.137 -80.674 0.987 7.858
4972.863 0.987 7.759 0.135 -80.749 0.135 -80.749 0.987 7.759
4992.36 0.988 7.662 0.133 -80.823 0.133 -80.823 0.988 7.662
5011.858 0.988 7.565 0.132 -80.896 0.132 -80.896 0.988 7.565
5031.355 0.988 7.468 0.13 -80.968 0.13 -80.968 0.988 7.468
5050.853 0.988 7.372 0.128 -81.039 0.128 -81.039 0.988 7.372
5070.35 0.988 7.276 0.127 -81.109 0.127 -81.109 0.988 7.276
5089.848 0.989 7.18 0.125 -81.177 0.125 -81.177 0.989 7.18
5109.345 0.989 7.085 0.123 -81.245 0.123 -81.245 0.989 7.085
5128.843 0.989 6.991 0.122 -81.311 0.122 -81.311 0.989 6.991
5148.34 0.989 6.896 0.12 -81.376 0.12 -81.376 0.989 6.896
5167.838 0.989 6.803 0.119 -81.44 0.119 -81.44 0.989 6.803
5187.335 0.99 6.709 0.117 -81.503 0.117 -81.503 0.99 6.709
5206.833 0.99 6.616 0.115 -81.564 0.115 -81.564 0.99 6.616
5226.33 0.99 6.524 0.114 -81.624 0.114 -81.624 0.99 6.524
5245.828 0.99 6.432 0.112 -81.683 0.112 -81.683 0.99 6.432
5265.325 0.99 6.34 0.11 -81.741 0.11 -81.741 0.99 6.34
5284.823 0.99 6.249 0.109 -81.797 0.109 -81.797 0.99 6.249
5304.32 0.991 6.158 0.107 -81.852 0.107 -81.852 0.991 6.158
5323.818 0.991 6.067 0.106 -81.906 0.106 -81.906 0.991 6.067
5343.315 0.991 5.977 0.104 -81.958 0.104 -81.958 0.991 5.977
5362.813 0.991 5.887 0.103 -82.008 0.103 -82.008 0.991 5.887
5382.31 0.991 5.798 0.101 -82.057 0.101 -82.057 0.991 5.798
5401.808 0.991 5.709 0.1 -82.105 0.1 -82.105 0.991 5.709
5421.305 0.991 5.62 0.098 -82.15 0.098 -82.15 0.991 5.62
5440.803 0.992 5.532 0.096 -82.194 0.096 -82.194 0.992 5.532
5460.3 0.992 5.444 0.095 -82.237 0.095 -82.237 0.992 5.444
5479.798 0.992 5.356 0.093 -82.277 0.093 -82.277 0.992 5.356
5499.295 0.992 5.269 0.092 -82.316 0.092 -82.316 0.992 5.269
5518.793 0.992 5.182 0.09 -82.353 0.09 -82.353 0.992 5.182
5538.29 0.992 5.096 0.089 -82.388 0.089 -82.388 0.992 5.096
5557.788 0.992 5.01 0.087 -82.421 0.087 -82.421 0.992 5.01
5577.285 0.992 4.924 0.086 -82.451 0.086 -82.451 0.992 4.924
5596.783 0.992 4.838 0.084 -82.48 0.084 -82.48 0.992 4.838
5616.28 0.993 4.753 0.083 -82.506 0.083 -82.506 0.993 4.753
5635.778 0.993 4.668 0.081 -82.53 0.081 -82.53 0.993 4.668
5655.275 0.993 4.584 0.08 -82.551 0.08 -82.551 0.993 4.584
5674.773 0.993 4.499 0.079 -82.57 0.079 -82.57 0.993 4.499
5694.27 0.993 4.416 0.077 -82.586 0.077 -82.586 0.993 4.416
5713.768 0.993 4.332 0.076 -82.6 0.076 -82.6 0.993 4.332
5733.265 0.993 4.249 0.074 -82.61 0.074 -82.61 0.993 4.249
5752.763 0.993 4.166 0.073 -82.617 0.073 -82.617 0.993 4.166
5772.26 0.993 4.083 0.071 -82.622 0.071 -82.622 0.993 4.083
5791.758 0.993 4.001 0.07 -82.622 0.07 -82.622 0.993 4.001
5811.255 0.994 3.919 0.068 -82.619 0.068 -82.619 0.994 3.919
5830.753 0.994 3.838 0.067 -82.613 0.067 -82.613 0.994 3.838
5850.25 0.994 3.756 0.066 -82.602 0.066 -82.602 0.994 3.756
5869.748 0.994 3.675 0.064 -82.588 0.064 -82.588 0.994 3.675
5889.245 0.994 3.594 0.063 -82.568 0.063 -82.568 0.994 3.594
5908.743 0.994 3.514 0.061 -82.545 0.061 -82.545 0.994 3.514
5928.24 0.994 3.434 0.06 -82.516 0.06 -82.516 0.994 3.434
5947.738 0.994 3.354 0.059 -82.482 0.059 -82.482 0.994 3.354
5967.235 0.994 3.274 0.057 -82.443 0.057 -82.443 0.994 3.274
5986.733 0.994 3.195 0.056 -82.397 0.056 -82.397 0.994 3.195
6006.23 0.994 3.116 0.055 -82.346 0.055 -82.346 0.994 3.116
6025.728 0.994 3.037 0.053 -82.287 0.053 -82.287 0.994 3.037
6045.225 0.994 2.959 0.052 -82.222 0.052 -82.222 0.994 2.959
6064.723 0.994 2.88 0.05 -82.148 0.05 -82.148 0.994 2.88
6084.22 0.994 2.803 0.049 -82.067 0.049 -82.067 0.994 2.803
6103.718 0.994 2.725 0.048 -81.976 0.048 -81.976 0.994 2.725
6123.215 0.995 2.647 0.046 -81.876 0.046 -81.876 0.995 2.647
6142.713 0.995 2.57 0.045 -81.765 0.045 -81.765 0.995 2.57
6162.21 0.995 2.494 0.044 -81.643 0.044 -81.643 0.995 2.494
6181.708 0.995 2.417 0.042 -81.509 0.042 -81.509 0.995 2.417
6201.205 0.995 2.341 0.041 -81.362 0.041 -81.362 0.995 2.341
6220.703 0.995 2.265 0.04 -81.2 0.04 -81.2 0.995 2.265
6240.2 0.995 2.189 0.038 -81.022 0.038 -81.022 0.995 2.189
