# MHz           S          MA           R         50
!Freq             MagS11           AngS11           MagS21           AngS21           MagS12           AngS12           MagS22           AngS22
 1                0.00157744262    23.4009049       0.998552501     -0.0359478928     0.998552501     -0.0359478928     0.00157744262    23.4009049      
 1.01233          0.00158249585    23.6265624       0.998550355     -0.0363910521     0.998550355     -0.0363910521     0.00158249585    23.6265624      
 1.02481203       0.00158762421    23.8537254       0.998548196     -0.0368396742     0.998548196     -0.0368396742     0.00158762421    23.8537254      
 1.03744796       0.00159282898    24.082388        0.998546023     -0.0372938263     0.998546023     -0.0372938263     0.00159282898    24.082388       
 1.05023969       0.00159811146    24.3125435       0.998543837     -0.0377535766     0.998543837     -0.0377535766     0.00159811146    24.3125435      
 1.06318915       0.00160347299    24.5441851       0.998541637     -0.0382189941     0.998541637     -0.0382189941     0.00160347299    24.5441851      
 1.07629827       0.00160891491    24.7773054       0.998539424     -0.0386901486     0.998539424     -0.0386901486     0.00160891491    24.7773054      
 1.08956903       0.0016144386     25.0118966       0.998537197     -0.0391671109     0.998537197     -0.0391671109     0.0016144386     25.0118966      
 1.10300342       0.00162004544    25.2479502       0.998534956     -0.0396499525     0.998534956     -0.0396499525     0.00162004544    25.2479502      
 1.11660345       0.00162573685    25.4854577       0.998532701     -0.0401387459     0.998532701     -0.0401387459     0.00162573685    25.4854577      
 1.13037117       0.00163151425    25.7244096       0.998530433     -0.0406335644     0.998530433     -0.0406335644     0.00163151425    25.7244096      
 1.14430865       0.00163737912    25.9647963       0.99852815      -0.0411344823     0.99852815      -0.0411344823     0.00163737912    25.9647963      
 1.15841797       0.00164333291    26.2066076       0.998525853     -0.0416415748     0.998525853     -0.0416415748     0.00164333291    26.2066076      
 1.17270126       0.00164937714    26.4498328       0.998523542     -0.042154918      0.998523542     -0.042154918      0.00164937714    26.4498328      
 1.18716067       0.00165551332    26.6944607       0.998521217     -0.0426745888     0.998521217     -0.0426745888     0.00165551332    26.6944607      
 1.20179836       0.001661743      26.9404798       0.998518877     -0.0432006654     0.998518877     -0.0432006654     0.001661743      26.9404798      
 1.21661654       0.00166806774    27.1878778       0.998516523     -0.0437332266     0.998516523     -0.0437332266     0.00166806774    27.1878778      
 1.23161742       0.00167448914    27.4366422       0.998514154     -0.0442723524     0.998514154     -0.0442723524     0.00167448914    27.4366422      
 1.24680326       0.0016810088     27.6867598       0.99851177      -0.0448181237     0.99851177      -0.0448181237     0.0016810088     27.6867598      
 1.26217634       0.00168762837    27.938217        0.998509372     -0.0453706223     0.998509372     -0.0453706223     0.00168762837    27.938217       
 1.27773898       0.00169434949    28.1909997       0.998506959     -0.0459299312     0.998506959     -0.0459299312     0.00169434949    28.1909997      
 1.2934935        0.00170117386    28.4450933       0.998504531     -0.0464961343     0.998504531     -0.0464961343     0.00170117386    28.4450933      
 1.30944228       0.00170810318    28.7004826       0.998502088     -0.0470693166     0.998502088     -0.0470693166     0.00170810318    28.7004826      
 1.3255877        0.00171513918    28.9571521       0.998499629     -0.0476495642     0.998499629     -0.0476495642     0.00171513918    28.9571521      
 1.3419322        0.00172228361    29.2150856       0.998497156     -0.0482369639     0.998497156     -0.0482369639     0.00172228361    29.2150856      
 1.35847822       0.00172953826    29.4742666       0.998494667     -0.0488316042     0.998494667     -0.0488316042     0.00172953826    29.4742666      
 1.37522826       0.00173690492    29.7346779       0.998492162     -0.049433574      0.998492162     -0.049433574      0.00173690492    29.7346779      
 1.39218482       0.00174438543    29.9963019       0.998489642     -0.0500429639     0.998489642     -0.0500429639     0.00174438543    29.9963019      
 1.40935046       0.00175198164    30.2591206       0.998487107     -0.0506598652     0.998487107     -0.0506598652     0.00175198164    30.2591206      
 1.42672775       0.00175969542    30.5231153       0.998484556     -0.0512843705     0.998484556     -0.0512843705     0.00175969542    30.5231153      
 1.4443193        0.00176752868    30.788267        0.998481988     -0.0519165735     0.998481988     -0.0519165735     0.00176752868    30.788267       
 1.46212776       0.00177548335    31.0545561       0.998479405     -0.0525565691     0.998479405     -0.0525565691     0.00177548335    31.0545561      
 1.4801558        0.00178356137    31.3219627       0.998476806     -0.0532044533     0.998476806     -0.0532044533     0.00178356137    31.3219627      
 1.49840612       0.00179176474    31.5904661       0.998474191     -0.0538603234     0.998474191     -0.0538603234     0.00179176474    31.5904661      
 1.51688146       0.00180009546    31.8600453       0.998471559     -0.0545242777     0.998471559     -0.0545242777     0.00180009546    31.8600453      
 1.53558461       0.00180855555    32.130679        0.998468911     -0.0551964159     0.998468911     -0.0551964159     0.00180855555    32.130679       
 1.55451837       0.00181714707    32.4023452       0.998466247     -0.0558768388     0.998466247     -0.0558768388     0.00181714707    32.4023452      
 1.57368558       0.00182587211    32.6750215       0.998463566     -0.0565656486     0.998463566     -0.0565656486     0.00182587211    32.6750215      
 1.59308913       0.00183473278    32.9486851       0.998460868     -0.0572629487     0.998460868     -0.0572629487     0.00183473278    32.9486851      
 1.61273191       0.00184373121    33.2233127       0.998458153     -0.0579688435     0.998458153     -0.0579688435     0.00184373121    33.2233127      
 1.6326169        0.00185286958    33.4988807       0.998455422     -0.0586834391     0.998455422     -0.0586834391     0.00185286958    33.4988807      
 1.65274706       0.00186215006    33.7753648       0.998452674     -0.0594068427     0.998452674     -0.0594068427     0.00186215006    33.7753648      
 1.67312544       0.00187157487    34.0527405       0.998449908     -0.0601391628     0.998449908     -0.0601391628     0.00187157487    34.0527405      
 1.69375507       0.00188114627    34.3309829       0.998447125     -0.0608805093     0.998447125     -0.0608805093     0.00188114627    34.3309829      
 1.71463907       0.00189086652    34.6100666       0.998444325     -0.0616309935     0.998444325     -0.0616309935     0.00189086652    34.6100666      
 1.73578057       0.00190073792    34.8899658       0.998441508     -0.062390728      0.998441508     -0.062390728      0.00190073792    34.8899658      
 1.75718275       0.0019107628     35.1706543       0.998438673     -0.0631598267     0.998438673     -0.0631598267     0.0019107628     35.1706543      
 1.77884881       0.00192094352    35.4521057       0.99843582      -0.063938405      0.99843582      -0.063938405      0.00192094352    35.4521057      
 1.80078202       0.00193128245    35.7342931       0.998432949     -0.0647265799     0.998432949     -0.0647265799     0.00193128245    35.7342931      
 1.82298566       0.00194178202    36.0171891       0.998430061     -0.0655244695     0.998430061     -0.0655244695     0.00194178202    36.0171891      
 1.84546307       0.00195244465    36.3007664       0.998427154     -0.0663321935     0.998427154     -0.0663321935     0.00195244465    36.3007664      
 1.86821763       0.00196327282    36.5849969       0.99842423      -0.0671498732     0.99842423      -0.0671498732     0.00196327282    36.5849969      
 1.89125275       0.00197426902    36.8698524       0.998421287     -0.0679776312     0.998421287     -0.0679776312     0.00197426902    36.8698524      
 1.9145719        0.00198543578    37.1553045       0.998418325     -0.0688155918     0.998418325     -0.0688155918     0.00198543578    37.1553045      
 1.93817857       0.00199677565    37.4413243       0.998415345     -0.0696638806     0.998415345     -0.0696638806     0.00199677565    37.4413243      
 1.96207631       0.00200829122    37.7278828       0.998412347     -0.070522625      0.998412347     -0.070522625      0.00200829122    37.7278828      
 1.98626872       0.0020199851     38.0149505       0.99840933      -0.0713919537     0.99840933      -0.0713919537     0.0020199851     38.0149505      
 2.01075941       0.00203185993    38.302498        0.998406294     -0.0722719973     0.998406294     -0.0722719973     0.00203185993    38.302498       
 2.03555207       0.00204391838    38.5904954       0.998403238     -0.0731628877     0.998403238     -0.0731628877     0.00204391838    38.5904954      
 2.06065043       0.00205616316    38.8789126       0.998400164     -0.0740647587     0.998400164     -0.0740647587     0.00205616316    38.8789126      
 2.08605825       0.00206859699    39.1677195       0.998397071     -0.0749777455     0.998397071     -0.0749777455     0.00206859699    39.1677195      
 2.11177935       0.00208122263    39.4568855       0.998393958     -0.0759019851     0.998393958     -0.0759019851     0.00208122263    39.4568855      
 2.13781759       0.00209404288    39.7463802       0.998390825     -0.0768376161     0.998390825     -0.0768376161     0.00209404288    39.7463802      
 2.16417688       0.00210706057    40.0361727       0.998387673     -0.0777847791     0.998387673     -0.0777847791     0.00210706057    40.0361727      
 2.19086118       0.00212027853    40.3262322       0.998384502     -0.078743616      0.998384502     -0.0787436159     0.00212027853    40.3262322      
 2.2178745        0.00213369966    40.6165276       0.99838131      -0.0797142707     0.99838131      -0.0797142707     0.00213369966    40.6165276      
 2.24522089       0.00214732687    40.9070277       0.998378098     -0.0806968888     0.998378098     -0.0806968888     0.00214732687    40.9070277      
 2.27290446       0.0021611631     41.1977015       0.998374866     -0.0816916178     0.998374866     -0.0816916178     0.0021611631     41.1977015      
 2.30092937       0.00217521134    41.4885176       0.998371614     -0.0826986069     0.998371614     -0.0826986069     0.00217521134    41.4885176      
 2.32929983       0.00218947459    41.7794445       0.998368342     -0.0837180072     0.998368342     -0.0837180072     0.00218947459    41.7794445      
 2.3580201        0.00220395589    42.070451        0.998365048     -0.0847499715     0.998365048     -0.0847499715     0.00220395589    42.070451       
 2.38709449       0.00221865832    42.3615057       0.998361734     -0.0857946548     0.998361734     -0.0857946548     0.00221865832    42.3615057      
 2.41652736       0.00223358497    42.652577        0.9983584       -0.0868522138     0.9983584       -0.0868522138     0.00223358497    42.652577       
 2.44632315       0.00224873899    42.9436335       0.998355044     -0.0879228071     0.998355044     -0.0879228071     0.00224873899    42.9436335      
 2.47648631       0.00226412355    43.234644        0.998351667     -0.0890065953     0.998351667     -0.0890065953     0.00226412355    43.234644       
 2.50702139       0.00227974185    43.5255769       0.998348269     -0.090103741      0.998348269     -0.090103741      0.00227974185    43.5255769      
 2.53793296       0.00229559713    43.816401        0.998344849     -0.0912144088     0.998344849     -0.0912144088     0.00229559713    43.816401       
 2.56922567       0.00231169266    44.1070852       0.998341408     -0.0923387653     0.998341408     -0.0923387653     0.00231169266    44.1070852      
 2.60090423       0.00232803173    44.3975981       0.998337945     -0.0934769793     0.998337945     -0.0934769793     0.00232803173    44.3975981      
 2.63297338       0.0023446177     44.6879089       0.998334461     -0.0946292214     0.998334461     -0.0946292214     0.0023446177     44.6879089      
 2.66543794       0.00236145393    44.9779866       0.998330954     -0.0957956645     0.998330954     -0.0957956645     0.00236145393    44.9779866      
 2.69830279       0.00237854383    45.2678005       0.998327425     -0.0969764836     0.998327425     -0.0969764836     0.00237854383    45.2678005      
 2.73157286       0.00239589084    45.5573199       0.998323874     -0.0981718559     0.998323874     -0.0981718559     0.00239589084    45.5573199      
 2.76525315       0.00241349843    45.8465144       0.9983203       -0.0993819606     0.9983203       -0.0993819606     0.00241349843    45.8465144      
 2.79934873       0.00243137013    46.1353538       0.998316704     -0.100606979      0.998316704     -0.100606979      0.00243137013    46.1353538      
 2.8338647        0.00244950949    46.423808        0.998313085     -0.101847096      0.998313085     -0.101847096      0.00244950949    46.423808       
 2.86880625       0.00246792007    46.7118471       0.998309443     -0.103102496      0.998309443     -0.103102496      0.00246792007    46.7118471      
 2.90417863       0.00248660552    46.9994416       0.998305778     -0.104373368      0.998305778     -0.104373368      0.00248660552    46.9994416      
 2.93998715       0.00250556948    47.2865621       0.998302089     -0.105659903      0.998302089     -0.105659903      0.00250556948    47.2865621      
 2.97623719       0.00252481566    47.5731794       0.998298378     -0.106962294      0.998298378     -0.106962294      0.00252481566    47.5731794      
 3.0129342        0.00254434778    47.8592649       0.998294642     -0.108280736      0.998294642     -0.108280736      0.00254434778    47.8592649      
 3.05008368       0.00256416963    48.1447898       0.998290883     -0.109615426      0.998290883     -0.109615426      0.00256416963    48.1447898      
 3.08769121       0.002584285      48.429726        0.998287101     -0.110966566      0.998287101     -0.110966566      0.002584285      48.429726       
 3.12576244       0.00260469776    48.7140455       0.998283294     -0.112334358      0.998283294     -0.112334358      0.00260469776    48.7140455      
 3.16430309       0.00262541178    48.9977207       0.998279462     -0.113719006      0.998279462     -0.113719006      0.00262541178    48.9977207      
 3.20331895       0.002646431      49.2807244       0.998275607     -0.115120719      0.998275607     -0.115120719      0.002646431      49.2807244      
 3.24281587       0.00266775939    49.5630295       0.998271727     -0.116539707      0.998271727     -0.116539707      0.00266775939    49.5630295      
 3.28279979       0.00268940096    49.8446096       0.998267822     -0.117976182      0.998267822     -0.117976182      0.00268940096    49.8446096      
 3.32327671       0.00271135975    50.1254383       0.998263892     -0.119430361      0.998263892     -0.119430361      0.00271135975    50.1254383      
 3.36425271       0.00273363986    50.40549         0.998259937     -0.120902461      0.998259937     -0.120902461      0.00273363986    50.40549        
 3.40573395       0.00275624543    50.684739        0.998255956     -0.122392703      0.998255956     -0.122392703      0.00275624543    50.684739       
 3.44772665       0.00277918063    50.9631605       0.998251951     -0.123901311      0.998251951     -0.123901311      0.00277918063    50.9631605      
 3.49023712       0.00280244969    51.2407297       0.998247919     -0.12542851       0.998247919     -0.12542851       0.00280244969    51.2407297      
 3.53327174       0.00282605686    51.5174224       0.998243862     -0.126974531      0.998243862     -0.126974531      0.00282605686    51.5174224      
 3.57683698       0.00285000646    51.7932148       0.998239779     -0.128539604      0.998239779     -0.128539604      0.00285000646    51.7932148      
 3.62093938       0.00287430283    52.0680835       0.99823567      -0.130123965      0.99823567      -0.130123965      0.00287430283    52.0680835      
 3.66558556       0.00289895039    52.3420056       0.998231534     -0.131727851      0.998231534     -0.131727851      0.00289895039    52.3420056      
 3.71078223       0.00292395356    52.6149586       0.998227371     -0.133351503      0.998227371     -0.133351503      0.00292395356    52.6149586      
 3.75653618       0.00294931685    52.8869204       0.998223182     -0.134995164      0.998223182     -0.134995164      0.00294931685    52.8869204      
 3.80285427       0.00297504479    53.1578695       0.998218966     -0.136659081      0.998218966     -0.136659081      0.00297504479    53.1578695      
 3.84974346       0.00300114197    53.4277847       0.998214723     -0.138343504      0.998214723     -0.138343504      0.00300114197    53.4277847      
 3.8972108        0.00302761302    53.6966452       0.998210452     -0.140048684      0.998210452     -0.140048684      0.00302761302    53.6966452      
 3.94526341       0.00305446262    53.9644311       0.998206154     -0.141774878      0.998206154     -0.141774878      0.00305446262    53.9644311      
 3.99390851       0.00308169551    54.2311224       0.998201828     -0.143522345      0.998201828     -0.143522345      0.00308169551    54.2311224      
 4.0431534        0.00310931646    54.4966999       0.998197474     -0.145291346      0.998197474     -0.145291346      0.00310931646    54.4966999      
 4.09300548       0.00313733032    54.7611449       0.998193092     -0.147082147      0.998193092     -0.147082147      0.00313733032    54.7611449      
 4.14347224       0.00316574197    55.0244391       0.998188682     -0.148895017      0.998188682     -0.148895017      0.00316574197    55.0244391      
 4.19456125       0.00319455634    55.2865646       0.998184243     -0.150730228      0.998184243     -0.150730228      0.00319455634    55.2865646      
 4.24628019       0.00322377844    55.5475041       0.998179775     -0.152588054      0.998179775     -0.152588054      0.00322377844    55.5475041      
 4.29863683       0.00325341329    55.8072407       0.998175278     -0.154468774      0.998175278     -0.154468774      0.00325341329    55.8072407      
 4.35163902       0.003283466      56.0657582       0.998170752     -0.156372671      0.998170752     -0.156372671      0.003283466      56.0657582      
 4.40529473       0.00331394172    56.3230406       0.998166196     -0.158300029      0.998166196     -0.158300029      0.00331394172    56.3230406      
 4.45961201       0.00334484568    56.5790725       0.998161611     -0.160251138      0.998161611     -0.160251138      0.00334484568    56.5790725      
 4.51459903       0.00337618312    56.8338391       0.998156996     -0.162226291      0.998156996     -0.162226291      0.00337618312    56.8338391      
 4.57026403       0.00340795938    57.0873259       0.998152351     -0.164225784      0.998152351     -0.164225784      0.00340795938    57.0873259      
 4.62661539       0.00344017983    57.3395191       0.998147675     -0.166249916      0.998147675     -0.166249916      0.00344017983    57.3395191      
 4.68366156       0.00347284993    57.590405        0.998142969     -0.168298991      0.998142969     -0.168298991      0.00347284993    57.590405       
