Freq.	S11(v1)	S12(v1)	S21(v1)	S22(v1)
1.00000000000000e+006	(-5.53703914066398e+001dB,2.17481532769200e+001°)	(-1.37567575537370e-002dB,-3.62335908287888e-002°)	(-1.37567575537370e-002dB,-3.62335908287888e-002°)	(-5.53703914066431e+001dB,2.17481532769273e+001°)
1.01232310441706e+006	(-5.53490445681129e+001dB,2.19731337254895e+001°)	(-1.37688682142186e-002dB,-3.66800500781259e-002°)	(-1.37688682142157e-002dB,-3.66800500781257e-002°)	(-5.53490445681121e+001dB,2.19731337254830e+001°)
1.02479806773660e+006	(-5.53273923394029e+001dB,2.21998667467377e+001°)	(-1.37810540556802e-002dB,-3.71320101499444e-002°)	(-1.37810540556783e-002dB,-3.71320101499441e-002°)	(-5.53273923394055e+001dB,2.21998667467359e+001°)
1.03742676133172e+006	(-5.53054304552321e+001dB,2.24283503841374e+001°)	(-1.37933155570905e-002dB,-3.75895388046346e-002°)	(-1.37933155570886e-002dB,-3.75895388046346e-002°)	(-5.53054304552375e+001dB,2.24283503841475e+001°)
1.05021107963667e+006	(-5.52831546251519e+001dB,2.26585821981769e+001°)	(-1.38056532003706e-002dB,-3.80527046419185e-002°)	(-1.38056532003677e-002dB,-3.80527046419184e-002°)	(-5.52831546251523e+001dB,2.26585821981696e+001°)
1.06315294043098e+006	(-5.52605605400265e+001dB,2.28905592645554e+001°)	(-1.38180674794191e-002dB,-3.85215771214406e-002°)	(-1.38180674794211e-002dB,-3.85215771214406e-002°)	(-5.52605605400276e+001dB,2.28905592645578e+001°)
1.07625428512722e+006	(-5.52376438634305e+001dB,2.31242781566946e+001°)	(-1.38305588834079e-002dB,-3.89962265422691e-002°)	(-1.38305588834069e-002dB,-3.89962265422691e-002°)	(-5.52376438634329e+001dB,2.31242781567127e+001°)
1.08951707906216e+006	(-5.52144002393479e+001dB,2.33597349355058e+001°)	(-1.38431279065977e-002dB,-3.94767240818442e-002°)	(-1.38431279065987e-002dB,-3.94767240818443e-002°)	(-5.52144002393487e+001dB,2.33597349354943e+001°)
1.10294331179161e+006	(-5.51908252942266e+001dB,2.35969251575908e+001°)	(-1.38557750511023e-002dB,-3.99631417815152e-002°)	(-1.38557750510994e-002dB,-3.99631417815151e-002°)	(-5.51908252942285e+001dB,2.35969251575800e+001°)
1.11653499738892e+006	(-5.51669146344431e+001dB,2.38358438431770e+001°)	(-1.38685008179158e-002dB,-4.04555525753961e-002°)	(-1.38685008179148e-002dB,-4.04555525753960e-002°)	(-5.51669146344438e+001dB,2.38358438431666e+001°)
1.13029417474705e+006	(-5.51426638513724e+001dB,2.40764854796604e+001°)	(-1.38813057137536e-002dB,-4.09540302969044e-002°)	(-1.38813057137488e-002dB,-4.09540302969042e-002°)	(-5.51426638513763e+001dB,2.40764854796742e+001°)
1.14422290788445e+006	(-5.51180685218348e+001dB,2.43188440073645e+001°)	(-1.38941902484212e-002dB,-4.14586496929967e-002°)	(-1.38941902484222e-002dB,-4.14586496929966e-002°)	(-5.51180685218363e+001dB,2.43188440073774e+001°)
1.15832328625471e+006	(-5.50931242094077e+001dB,2.45629128154943e+001°)	(-1.39071549346868e-002dB,-4.19694864259883e-002°)	(-1.39071549346868e-002dB,-4.19694864259885e-002°)	(-5.50931242094088e+001dB,2.45629128154962e+001°)
1.17259742505994e+006	(-5.50678264688794e+001dB,2.48086847363367e+001°)	(-1.39202002927515e-002dB,-4.24866170935980e-002°)	(-1.39202002927515e-002dB,-4.24866170935979e-002°)	(-5.50678264688816e+001dB,2.48086847363401e+001°)
1.18704746556813e+006	(-5.50421708430859e+001dB,2.50561520294202e+001°)	(-1.39333268413573e-002dB,-4.30101192285545e-002°)	(-1.39333268413563e-002dB,-4.30101192285546e-002°)	(-5.50421708430881e+001dB,2.50561520294233e+001°)
1.20167557543434e+006	(-5.50161528709546e+001dB,2.53053063786315e+001°)	(-1.39465351081592e-002dB,-4.35400713320859e-002°)	(-1.39465351081563e-002dB,-4.35400713320858e-002°)	(-5.50161528709596e+001dB,2.53053063786463e+001°)
1.21648394902585e+006	(-5.49897680832181e+001dB,2.55561388837590e+001°)	(-1.39598256195222e-002dB,-4.40765528562126e-002°)	(-1.39598256195222e-002dB,-4.40765528562124e-002°)	(-5.49897680832176e+001dB,2.55561388837650e+001°)
1.23147480775137e+006	(-5.49630120109748e+001dB,2.58086400517917e+001°)	(-1.39731989108964e-002dB,-4.46196442505552e-002°)	(-1.39731989108993e-002dB,-4.46196442505555e-002°)	(-5.49630120109749e+001dB,2.58086400518059e+001°)
1.24665040039428e+006	(-5.49358801821219e+001dB,2.60627997888428e+001°)	(-1.39866555174939e-002dB,-4.51694269477698e-002°)	(-1.39866555174900e-002dB,-4.51694269477698e-002°)	(-5.49358801821237e+001dB,2.60627997888356e+001°)
1.26201300344991e+006	(-5.49083681263467e+001dB,2.63186074058506e+001°)	(-1.40001959803452e-002dB,-4.57259833700544e-002°)	(-1.40001959803442e-002dB,-4.57259833700543e-002°)	(-5.49083681263464e+001dB,2.63186074058230e+001°)
1.27756492146711e+006	(-5.48804713779982e+001dB,2.65760515960606e+001°)	(-1.40138208454717e-002dB,-4.62893969714624e-002°)	(-1.40138208454697e-002dB,-4.62893969714625e-002°)	(-5.48804713779974e+001dB,2.65760515960243e+001°)
1.29330848739393e+006	(-5.48521854778055e+001dB,2.68351204419900e+001°)	(-1.40275306645229e-002dB,-4.68597522270317e-002°)	(-1.40275306645210e-002dB,-4.68597522270315e-002°)	(-5.48521854778060e+001dB,2.68351204419991e+001°)
1.30924606292756e+006	(-5.48235059713116e+001dB,2.70958013847284e+001°)	(-1.40413259853769e-002dB,-4.74371346652735e-002°)	(-1.40413259853798e-002dB,-4.74371346652735e-002°)	(-5.48235059713099e+001dB,2.70958013847044e+001°)
1.32538003886864e+006	(-5.47944284185579e+001dB,2.73580812649294e+001°)	(-1.40552073697366e-002dB,-4.80216308456262e-002°)	(-1.40552073697327e-002dB,-4.80216308456262e-002°)	(-5.47944284185593e+001dB,2.73580812649263e+001°)
1.34171283547991e+006	(-5.47649483902479e+001dB,2.76219462756200e+001°)	(-1.40691753776564e-002dB,-4.86133284066934e-002°)	(-1.40691753776487e-002dB,-4.86133284066933e-002°)	(-5.47649483902510e+001dB,2.76219462756410e+001°)
1.35824690284924e+006	(-5.47350614730080e+001dB,2.78873819733654e+001°)	(-1.40832305740054e-002dB,-4.92123160695134e-002°)	(-1.40832305740054e-002dB,-4.92123160695135e-002°)	(-5.47350614730095e+001dB,2.78873819733765e+001°)
1.37498472125720e+006	(-5.47047632728733e+001dB,2.81543732809328e+001°)	(-1.40973735309105e-002dB,-4.98186836461395e-002°)	(-1.40973735309096e-002dB,-4.98186836461396e-002°)	(-5.47047632728756e+001dB,2.81543732809344e+001°)
1.39192880154912e+006	(-5.46740494145782e+001dB,2.84229044802690e+001°)	(-1.41116048219446e-002dB,-5.04325220406702e-002°)	(-1.41116048219455e-002dB,-5.04325220406703e-002°)	(-5.46740494145788e+001dB,2.84229044802765e+001°)
1.40908168551173e+006	(-5.46429155480492e+001dB,2.86929591994666e+001°)	(-1.41259250271290e-002dB,-5.10539233018785e-002°)	(-1.41259250271252e-002dB,-5.10539233018785e-002°)	(-5.46429155480527e+001dB,2.86929591994821e+001°)
1.42644594625446e+006	(-5.46113573469949e+001dB,2.89645204238736e+001°)	(-1.41403347280801e-002dB,-5.16829805917887e-002°)	(-1.41403347280763e-002dB,-5.16829805917887e-002°)	(-5.46113573469967e+001dB,2.89645204238667e+001°)
1.44402418859545e+006	(-5.45793705161576e+001dB,2.92375704944483e+001°)	(-1.41548345155512e-002dB,-5.23197882263142e-002°)	(-1.41548345155512e-002dB,-5.23197882263142e-002°)	(-5.45793705161575e+001dB,2.92375704944486e+001°)
1.46181904945227e+006	(-5.45469507897330e+001dB,2.95120910905962e+001°)	(-1.41694249802242e-002dB,-5.29644416902525e-002°)	(-1.41694249802251e-002dB,-5.29644416902525e-002°)	(-5.45469507897336e+001dB,2.95120910905898e+001°)
1.47983319823752e+006	(-5.45140939370904e+001dB,2.97880632519022e+001°)	(-1.41841067206482e-002dB,-5.36170376327430e-002°)	(-1.41841067206453e-002dB,-5.36170376327430e-002°)	(-5.45140939370903e+001dB,2.97880632519031e+001°)
1.49806933725924e+006	(-5.44807957633812e+001dB,3.00654673584059e+001°)	(-1.41988803369760e-002dB,-5.42776739008816e-002°)	(-1.41988803369750e-002dB,-5.42776739008815e-002°)	(-5.44807957633815e+001dB,3.00654673584030e+001°)
1.51653020212629e+006	(-5.44470521152338e+001dB,3.03442831456380e+001°)	(-1.42137464377572e-002dB,-5.49464495485923e-002°)	(-1.42137464377553e-002dB,-5.49464495485924e-002°)	(-5.44470521152361e+001dB,3.03442831456382e+001°)
1.53521856215872e+006	(-5.44128588799895e+001dB,3.06244896974264e+001°)	(-1.42287056328777e-002dB,-5.56234648428864e-002°)	(-1.42287056328796e-002dB,-5.56234648428864e-002°)	(-5.44128588799911e+001dB,3.06244896974090e+001°)
1.55413722080321e+006	(-5.43782119915327e+001dB,3.09060654561687e+001°)	(-1.42437585397412e-002dB,-5.63088212836326e-002°)	(-1.42437585397412e-002dB,-5.63088212836327e-002°)	(-5.43782119915341e+001dB,3.09060654561663e+001°)
1.57328901605361e+006	(-5.43431074309154e+001dB,3.11889882092166e+001°)	(-1.42589057771933e-002dB,-5.70026216309571e-002°)	(-1.42589057771933e-002dB,-5.70026216309571e-002°)	(-5.43431074309147e+001dB,3.11889882091987e+001°)
1.59267682087666e+006	(-5.43075412323892e+001dB,3.14732351090586e+001°)	(-1.42741479733184e-002dB,-5.77049699130628e-002°)	(-1.42741479733164e-002dB,-5.77049699130628e-002°)	(-5.43075412323878e+001dB,3.14732351090112e+001°)
1.61230354364296e+006	(-5.42715094830966e+001dB,3.17587826754068e+001°)	(-1.42894857599808e-002dB,-5.84159714238098e-002°)	(-1.42894857599817e-002dB,-5.84159714238097e-002°)	(-5.42715094830975e+001dB,3.17587826753716e+001°)
1.63217212856327e+006	(-5.42350083275320e+001dB,3.20456067933020e+001°)	(-1.43049197745285e-002dB,-5.91357327591286e-002°)	(-1.43049197745266e-002dB,-5.91357327591286e-002°)	(-5.42350083275344e+001dB,3.20456067933386e+001°)
1.65228555613017e+006	(-5.41980339680953e+001dB,3.23336827007710e+001°)	(-1.43204506531455e-002dB,-5.98643618458931e-002°)	(-1.43204506531446e-002dB,-5.98643618458931e-002°)	(-5.41980339680967e+001dB,3.23336827007929e+001°)
1.67264684356517e+006	(-5.41605826721249e+001dB,3.26229850386773e+001°)	(-1.43360790446917e-002dB,-6.06019679132537e-002°)	(-1.43360790446917e-002dB,-6.06019679132538e-002°)	(-5.41605826721246e+001dB,3.26229850386925e+001°)
1.69325904527129e+006	(-5.41226507724538e+001dB,3.29134878182433e+001°)	(-1.43518056007742e-002dB,-6.13486615578681e-002°)	(-1.43518056007722e-002dB,-6.13486615578681e-002°)	(-5.41226507724554e+001dB,3.29134878182397e+001°)
1.71412525329131e+006	(-5.40842346709616e+001dB,3.32051644549877e+001°)	(-1.43676309812019e-002dB,-6.21045547208431e-002°)	(-1.43676309812009e-002dB,-6.21045547208431e-002°)	(-5.40842346709653e+001dB,3.32051644550203e+001°)
1.73524859777154e+006	(-5.40453308376514e+001dB,3.34979877459105e+001°)	(-1.43835558427968e-002dB,-6.28697607282133e-002°)	(-1.43835558427910e-002dB,-6.28697607282134e-002°)	(-5.40453308376525e+001dB,3.34979877459223e+001°)
1.75663224743144e+006	(-5.40059358221920e+001dB,3.37919299097441e+001°)	(-1.43995808590320e-002dB,-6.36443943176358e-002°)	(-1.43995808590320e-002dB,-6.36443943176358e-002°)	(-5.40059358221948e+001dB,3.37919299097625e+001°)
1.77827941003891e+006	(-5.39660462457703e+001dB,3.40869625772737e+001°)	(-1.44157066988423e-002dB,-6.44285716079571e-002°)	(-1.44157066988442e-002dB,-6.44285716079573e-002°)	(-5.39660462457698e+001dB,3.40869625772785e+001°)
1.80019333289154e+006	(-5.39256588137137e+001dB,3.43830568060107e+001°)	(-1.44319340437541e-002dB,-6.52224101801838e-002°)	(-1.44319340437522e-002dB,-6.52224101801836e-002°)	(-5.39256588137119e+001dB,3.43830568060048e+001°)
1.82237730330366e+006	(-5.38847703120256e+001dB,3.46801830931678e+001°)	(-1.44482635780401e-002dB,-6.60260290457459e-002°)	(-1.44482635780372e-002dB,-6.60260290457458e-002°)	(-5.38847703120255e+001dB,3.46801830931685e+001°)
1.84483464909955e+006	(-5.38433776127124e+001dB,3.49783113863642e+001°)	(-1.44646959930309e-002dB,-6.68395486845254e-002°)	(-1.44646959930299e-002dB,-6.68395486845254e-002°)	(-5.38433776127135e+001dB,3.49783113863976e+001°)
1.86756873911262e+006	(-5.38014776741533e+001dB,3.52774110852656e+001°)	(-1.44812319815092e-002dB,-6.76630910625523e-002°)	(-1.44812319815102e-002dB,-6.76630910625522e-002°)	(-5.38014776741528e+001dB,3.52774110852817e+001°)
1.89058298369075e+006	(-5.37590675479948e+001dB,3.55774510751248e+001°)	(-1.44978722485939e-002dB,-6.84967796482261e-002°)	(-1.44978722485959e-002dB,-6.84967796482260e-002°)	(-5.37590675479952e+001dB,3.55774510751531e+001°)
1.91388083520789e+006	(-5.37161443768911e+001dB,3.58783997193805e+001°)	(-1.45146175000478e-002dB,-6.93407394281092e-002°)	(-1.45146175000459e-002dB,-6.93407394281093e-002°)	(-5.37161443768930e+001dB,3.58783997194054e+001°)
1.93746578858197e+006	(-5.36727054003202e+001dB,3.61802248868942e+001°)	(-1.45314684502174e-002dB,-7.01950969290289e-002°)	(-1.45314684502184e-002dB,-7.01950969290289e-002°)	(-5.36727054003212e+001dB,3.61802248868957e+001°)
1.96134138179915e+006	(-5.36287479562352e+001dB,3.64828939655428e+001°)	(-1.45484258206444e-002dB,-7.10599802326258e-002°)	(-1.45484258206454e-002dB,-7.10599802326258e-002°)	(-5.36287479562343e+001dB,3.64828939655515e+001°)
1.98551119644457e+006	(-5.35842694828817e+001dB,3.67863738636212e+001°)	(-1.45654903365390e-002dB,-7.19355190132134e-002°)	(-1.45654903365390e-002dB,-7.19355190132134e-002°)	(-5.35842694828800e+001dB,3.67863738636152e+001°)
2.00997885823960e+006	(-5.35392675212066e+001dB,3.70906310464275e+001°)	(-1.45826627308842e-002dB,-7.28218445228861e-002°)	(-1.45826627308852e-002dB,-7.28218445228860e-002°)	(-5.35392675212077e+001dB,3.70906310464379e+001°)
2.03474803758578e+006	(-5.34937397176367e+001dB,3.73956315393660e+001°)	(-1.45999437428889e-002dB,-7.37190896380404e-002°)	(-1.45999437428880e-002dB,-7.37190896380404e-002°)	(-5.34937397176374e+001dB,3.73956315393997e+001°)
2.05982245011536e+006	(-5.34476838248858e+001dB,3.77013409410241e+001°)	(-1.46173341149480e-002dB,-7.46273888744511e-002°)	(-1.46173341149460e-002dB,-7.46273888744511e-002°)	(-5.34476838248872e+001dB,3.77013409410421e+001°)
2.08520585724874e+006	(-5.34010977067367e+001dB,3.80077244560336e+001°)	(-1.46348346002143e-002dB,-7.55468784045463e-002°)	(-1.46348346002114e-002dB,-7.55468784045462e-002°)	(-5.34010977067386e+001dB,3.80077244560074e+001°)
2.11090206675869e+006	(-5.33539793386993e+001dB,3.83147469129877e+001°)	(-1.46524459604579e-002dB,-7.64776960671332e-002°)	(-1.46524459604589e-002dB,-7.64776960671332e-002°)	(-5.33539793387000e+001dB,3.83147469129819e+001°)
2.13691493334155e+006	(-5.33063268076767e+001dB,3.86223727551877e+001°)	(-1.46701689566999e-002dB,-7.74199814155142e-002°)	(-1.46701689566989e-002dB,-7.74199814155142e-002°)	(-5.33063268076780e+001dB,3.86223727551677e+001°)
2.16324835919550e+006	(-5.32581383181231e+001dB,3.89305661006486e+001°)	(-1.46880043648350e-002dB,-7.83738757073068e-002°)	(-1.46880043648340e-002dB,-7.83738757073068e-002°)	(-5.32581383181230e+001dB,3.89305661006679e+001°)
2.18990629460590e+006	(-5.32094121887045e+001dB,3.92392907212234e+001°)	(-1.47059529588755e-002dB,-7.93395219494185e-002°)	(-1.47059529588793e-002dB,-7.93395219494184e-002°)	(-5.32094121887035e+001dB,3.92392907212318e+001°)
2.21689273853791e+006	(-5.31601468585908e+001dB,3.95485100963051e+001°)	(-1.47240155258395e-002dB,-8.03170649041550e-002°)	(-1.47240155258443e-002dB,-8.03170649041551e-002°)	(-5.31601468585909e+001dB,3.95485100962952e+001°)
2.24421173923634e+006	(-5.31103408875172e+001dB,3.98581874210755e+001°)	(-1.47421928608634e-002dB,-8.13066511191967e-002°)	(-1.47421928608634e-002dB,-8.13066511191966e-002°)	(-5.31103408875182e+001dB,3.98581874210769e+001°)
2.27186739483295e+006	(-5.30599929553918e+001dB,4.01682856178349e+001°)	(-1.47604857621282e-002dB,-8.23084289491439e-002°)	(-1.47604857621243e-002dB,-8.23084289491440e-002°)	(-5.30599929553938e+001dB,4.01682856178287e+001°)
2.29986385396119e+006	(-5.30091018657116e+001dB,4.04787673752388e+001°)	(-1.47788950383820e-002dB,-8.33225485667196e-002°)	(-1.47788950383801e-002dB,-8.33225485667196e-002°)	(-5.30091018657128e+001dB,4.04787673752554e+001°)
2.32820531637859e+006	(-5.29576665447647e+001dB,4.07895951477534e+001°)	(-1.47974215007880e-002dB,-8.43491620043565e-002°)	(-1.47974215007832e-002dB,-8.43491620043564e-002°)	(-5.29576665447661e+001dB,4.07895951477429e+001°)
2.35689603359668e+006	(-5.29056860467563e+001dB,4.11007312072154e+001°)	(-1.48160659764188e-002dB,-8.53884231655069e-002°)	(-1.48160659764188e-002dB,-8.53884231655069e-002°)	(-5.29056860467556e+001dB,4.11007312072120e+001°)
2.38594030951885e+006	(-5.28531595485778e+001dB,4.14121376322742e+001°)	(-1.48348292905074e-002dB,-8.64404878439209e-002°)	(-1.48348292905045e-002dB,-8.64404878439209e-002°)	(-5.28531595485797e+001dB,4.14121376322601e+001°)
2.41534250108593e+006	(-5.28000863571100e+001dB,4.17237763635614e+001°)	(-1.48537122848659e-002dB,-8.75055137541553e-002°)	(-1.48537122848649e-002dB,-8.75055137541552e-002°)	(-5.28000863571120e+001dB,4.17237763635802e+001°)
2.44510701892978e+006	(-5.27464659037430e+001dB,4.20356091925529e+001°)	(-1.48727157996797e-002dB,-8.85836605519356e-002°)	(-1.48727157996797e-002dB,-8.85836605519357e-002°)	(-5.27464659037440e+001dB,4.20356091925452e+001°)
2.47523832803495e+006	(-5.26922977516634e+001dB,4.23475978190506e+001°)	(-1.48918406930104e-002dB,-8.96750898658822e-002°)	(-1.48918406930094e-002dB,-8.96750898658822e-002°)	(-5.26922977516641e+001dB,4.23475978190616e+001°)
2.50574094840844e+006	(-5.26375815897065e+001dB,4.26597038449912e+001°)	(-1.49110878227156e-002dB,-9.07799653049921e-002°)	(-1.49110878227156e-002dB,-9.07799653049922e-002°)	(-5.26375815897076e+001dB,4.26597038450072e+001°)
2.53661945575778e+006	(-5.25823172373553e+001dB,4.29718888160047e+001°)	(-1.49304580587987e-002dB,-9.18984524988293e-002°)	(-1.49304580587987e-002dB,-9.18984524988292e-002°)	(-5.25823172373561e+001dB,4.29718888160148e+001°)
2.56787848217744e+006	(-5.25265046431518e+001dB,4.32841142377730e+001°)	(-1.49499522787874e-002dB,-9.30307191157843e-002°)	(-1.49499522787874e-002dB,-9.30307191157844e-002°)	(-5.25265046431512e+001dB,4.32841142377614e+001°)
2.59952271684364e+006	(-5.24701438859863e+001dB,4.35963416027421e+001°)	(-1.49695713706884e-002dB,-9.41769348950735e-002°)	(-1.49695713706884e-002dB,-9.41769348950734e-002°)	(-5.24701438859878e+001dB,4.35963416027475e+001°)
2.63155690671783e+006	(-5.24132351720392e+001dB,4.39085324054602e+001°)	(-1.49893162258637e-002dB,-9.53372716533097e-002°)	(-1.49893162258598e-002dB,-9.53372716533096e-002°)	(-5.24132351720424e+001dB,4.39085324054454e+001°)
2.66398585725875e+006	(-5.23557788393740e+001dB,4.42206481828123e+001°)	(-1.50091877515449e-002dB,-9.65119033322654e-002°)	(-1.50091877515420e-002dB,-9.65119033322654e-002°)	(-5.23557788393755e+001dB,4.42206481828102e+001°)
2.69681443314333e+006	(-5.22977753528545e+001dB,4.45326505127107e+001°)	(-1.50291868564546e-002dB,-9.77010060152087e-002°)	(-1.50291868564526e-002dB,-9.77010060152087e-002°)	(-5.22977753528566e+001dB,4.45326505127038e+001°)
2.73004755899640e+006	(-5.22392253077068e+001dB,4.48445010625625e+001°)	(-1.50493144641551e-002dB,-9.89047579530302e-002°)	(-1.50493144641580e-002dB,-9.89047579530302e-002°)	(-5.22392253077074e+001dB,4.48445010625658e+001°)
2.76369022012945e+006	(-5.21801294253277e+001dB,4.51561615916299e+001°)	(-1.50695715015291e-002dB,-1.00123339585814e-001°)	(-1.50695715015262e-002dB,-1.00123339585814e-001°)	(-5.21801294253294e+001dB,4.51561615916265e+001°)
2.79774746328852e+006	(-5.21204885567098e+001dB,4.54675939915068e+001°)	(-1.50899589104588e-002dB,-1.01356933585475e-001°)	(-1.50899589104588e-002dB,-1.01356933585475e-001°)	(-5.21204885567100e+001dB,4.54675939914986e+001°)
2.83222439741120e+006	(-5.20603036785132e+001dB,4.57787602958662e+001°)	(-1.51104776391496e-002dB,-1.02605724869856e-001°)	(-1.51104776391447e-002dB,-1.02605724869856e-001°)	(-5.20603036785142e+001dB,4.57787602958740e+001°)
2.86712619439305e+006	(-5.19995758926884e+001dB,4.60896227058347e+001°)	(-1.51311286437697e-002dB,-1.03869900630807e-001°)	(-1.51311286437668e-002dB,-1.03869900630807e-001°)	(-5.19995758926912e+001dB,4.60896227058239e+001°)
2.90245808986345e+006	(-5.19383064271121e+001dB,4.64001436213424e+001°)	(-1.51519128939968e-002dB,-1.05149650365743e-001°)	(-1.51519128939987e-002dB,-1.05149650365743e-001°)	(-5.19383064271137e+001dB,4.64001436213117e+001°)
