Freq.	S11(v1)	S12(v1)	S21(v1)	S22(v1)
1.00000000000000e+006	(-5.60800608271213e+001dB,2.47989409805069e+001°)	(-1.23890465368275e-002dB,-3.77923638258915e-002°)	(-1.23890465368284e-002dB,-3.77923638258914e-002°)	(-5.60800608271240e+001dB,2.47989409805066e+001°)
1.51766169154229e+007	(-3.98205749771432e+001dB,7.79327343749656e+001°)	(-1.81228665197859e-002dB,-5.73195770578670e-001°)	(-1.81228665197879e-002dB,-5.73195770578670e-001°)	(-3.98205749771449e+001dB,7.79327343749646e+001°)
2.93532338308458e+007	(-3.42068427459747e+001dB,8.19524537417281e+001°)	(-2.20986258044185e-002dB,-1.10819063959346e+000°)	(-2.20986258044175e-002dB,-1.10819063959346e+000°)	(-3.42068427459761e+001dB,8.19524537417261e+001°)
4.35298507462687e+007	(-3.08162661329268e+001dB,8.31726030661386e+001°)	(-2.62039580936948e-002dB,-1.64281394950006e+000°)	(-2.62039580936977e-002dB,-1.64281394950006e+000°)	(-3.08162661329277e+001dB,8.31726030661379e+001°)
5.77064676616915e+007	(-2.83835236572265e+001dB,8.35920580124603e+001°)	(-3.07328226598262e-002dB,-2.17703701181111e+000°)	(-3.07328226598291e-002dB,-2.17703701181111e+000°)	(-2.83835236572272e+001dB,8.35920580124595e+001°)
7.18830845771144e+007	(-2.64863258880139e+001dB,8.36665896828347e+001°)	(-3.58014234497583e-002dB,-2.71081412409286e+000°)	(-3.58014234497612e-002dB,-2.71081412409287e+000°)	(-2.64863258880141e+001dB,8.36665896828346e+001°)
8.60597014925373e+007	(-2.49317059012962e+001dB,8.35593474386427e+001°)	(-4.14692467366453e-002dB,-3.24409205232604e+000°)	(-4.14692467366453e-002dB,-3.24409205232604e+000°)	(-2.49317059012979e+001dB,8.35593474386423e+001°)
1.00236318407960e+008	(-2.36152607935989e+001dB,8.33439080599928e+001°)	(-4.77710242165909e-002dB,-3.77681356418040e+000°)	(-4.77710242165890e-002dB,-3.77681356418040e+000°)	(-2.36152607935997e+001dB,8.33439080599929e+001°)
1.14412935323383e+008	(-2.24741037199226e+001dB,8.30585908274311e+001°)	(-5.47286305572664e-002dB,-4.30891912128699e+000°)	(-5.47286305572664e-002dB,-4.30891912128699e+000°)	(-2.24741037199225e+001dB,8.30585908274313e+001°)
1.28589552238806e+008	(-2.14674140797037e+001dB,8.27254368903446e+001°)	(-6.23564504149395e-002dB,-4.84034782198529e+000°)	(-6.23564504149385e-002dB,-4.84034782198529e+000°)	(-2.14674140797052e+001dB,8.27254368903446e+001°)
1.42766169154229e+008	(-2.05671892697618e+001dB,8.23580857266295e+001°)	(-7.06641259571375e-002dB,-5.37103798501228e+000°)	(-7.06641259571385e-002dB,-5.37103798501228e+000°)	(-2.05671892697637e+001dB,8.23580857266293e+001°)
1.56942786069652e+008	(-1.97533839819402e+001dB,8.19654663846126e+001°)	(-7.96580969965982e-002dB,-5.90092754099913e+000°)	(-7.96580969965982e-002dB,-5.90092754099913e+000°)	(-1.97533839819409e+001dB,8.19654663846127e+001°)
1.71119402985075e+008	(-1.90111547863513e+001dB,8.15536922984247e+001°)	(-8.93425258826906e-002dB,-6.42995431229921e+000°)	(-8.93425258826896e-002dB,-6.42995431229920e+000°)	(-1.90111547863521e+001dB,8.15536922984248e+001°)
1.85296019900498e+008	(-1.83292026825009e+001dB,8.11271055572135e+001°)	(-9.97198840292481e-002dB,-6.95805622362558e+000°)	(-9.97198840292491e-002dB,-6.95805622362558e+000°)	(-1.83292026825016e+001dB,8.11271055572135e+001°)
1.99472636815920e+008	(-1.76987272194253e+001dB,8.06888862292544e+001°)	(-1.10791340812381e-001dB,-7.48517146748851e+000°)	(-1.10791340812380e-001dB,-7.48517146748851e+000°)	(-1.76987272194254e+001dB,8.06888862292544e+001°)
2.13649253731343e+008	(-1.71127399454086e+001dB,8.02414249836777e+001°)	(-1.22557031282106e-001dB,-8.01123863874973e+000°)	(-1.22557031282104e-001dB,-8.01123863874973e+000°)	(-1.71127399454096e+001dB,8.02414249836777e+001°)
2.27825870646766e+008	(-1.65655985397477e+001dB,7.97865600963674e+001°)	(-1.35016246509555e-001dB,-8.53619684721764e+000°)	(-1.35016246509556e-001dB,-8.53619684721764e+000°)	(-1.65655985397488e+001dB,7.97865600963673e+001°)
2.42002487562189e+008	(-1.60526816322409e+001dB,7.93257333201190e+001°)	(-1.48167572839061e-001dB,-9.05998581404750e+000°)	(-1.48167572839059e-001dB,-9.05998581404750e+000°)	(-1.60526816322415e+001dB,7.93257333201192e+001°)
2.56179104477612e+008	(-1.55701562237147e+001dB,7.88600953871346e+001°)	(-1.62008996416570e-001dB,-9.58254595580007e+000°)	(-1.62008996416574e-001dB,-9.58254595580007e+000°)	(-1.55701562237160e+001dB,7.88600953871345e+001°)
2.70355721393035e+008	(-1.51148077653114e+001dB,7.83905792299607e+001°)	(-1.76537983523126e-001dB,-1.01038184587915e+001°)	(-1.76537983523123e-001dB,-1.01038184587915e+001°)	(-1.51148077653125e+001dB,7.83905792299607e+001°)
2.84532338308458e+008	(-1.46839136734402e+001dB,7.79179519278723e+001°)	(-1.91751543676898e-001dB,-1.06237453455752e+001°)	(-1.91751543676897e-001dB,-1.06237453455752e+001°)	(-1.46839136734409e+001dB,7.79179519278724e+001°)
2.98708955223881e+008	(-1.42751476037685e+001dB,7.74428522846025e+001°)	(-2.07646280236384e-001dB,-1.11422695348794e+001°)	(-2.07646280236384e-001dB,-1.11422695348794e+001°)	(-1.42751476037691e+001dB,7.74428522846024e+001°)
3.12885572139303e+008	(-1.38865059241019e+001dB,7.69658184876123e+001°)	(-2.24218431776209e-001dB,-1.16593348959566e+001°)	(-2.24218431776206e-001dB,-1.16593348959566e+001°)	(-1.38865059241021e+001dB,7.69658184876123e+001°)
3.27062189054726e+008	(-1.35162504823738e+001dB,7.64873087862786e+001°)	(-2.41463906548980e-001dB,-1.21748862980539e+001°)	(-2.41463906548980e-001dB,-1.21748862980539e+001°)	(-1.35162504823750e+001dB,7.64873087862786e+001°)
3.41238805970149e+008	(-1.31628635201743e+001dB,7.60077171697907e+001°)	(-2.59378311698575e-001dB,-1.26888696555432e+001°)	(-2.59378311698580e-001dB,-1.26888696555432e+001°)	(-1.31628635201749e+001dB,7.60077171697906e+001°)
3.55415422885572e+008	(-1.28250117649318e+001dB,7.55273854061614e+001°)	(-2.77956978429358e-001dB,-1.32012319691078e+001°)	(-2.77956978429359e-001dB,-1.32012319691078e+001°)	(-1.28250117649321e+001dB,7.55273854061614e+001°)
3.69592039800995e+008	(-1.25015175464137e+001dB,7.50466123951429e+001°)	(-2.97194984035804e-001dB,-1.37119213633172e+001°)	(-2.97194984035804e-001dB,-1.37119213633172e+001°)	(-1.25015175464150e+001dB,7.50466123951429e+001°)
3.83768656716418e+008	(-1.21913353509334e+001dB,7.45656615119087e+001°)	(-3.17087171456228e-001dB,-1.42208871208298e+001°)	(-3.17087171456225e-001dB,-1.42208871208298e+001°)	(-1.21913353509341e+001dB,7.45656615119088e+001°)
3.97945273631841e+008	(-1.18935326296088e+001dB,7.40847664297489e+001°)	(-3.37628166854563e-001dB,-1.47280797134244e+001°)	(-3.37628166854563e-001dB,-1.47280797134244e+001°)	(-1.18935326296102e+001dB,7.40847664297490e+001°)
4.12121890547263e+008	(-1.16072739671320e+001dB,7.36041357788353e+001°)	(-3.58812395624156e-001dB,-1.52334508300373e+001°)	(-3.58812395624153e-001dB,-1.52334508300373e+001°)	(-1.16072739671334e+001dB,7.36041357788353e+001°)
4.26298507462686e+008	(-1.13318079290307e+001dB,7.31239569048807e+001°)	(-3.80634097100269e-001dB,-1.57369534019300e+001°)	(-3.80634097100270e-001dB,-1.57369534019300e+001°)	(-1.13318079290314e+001dB,7.31239569048807e+001°)
4.40475124378109e+008	(-1.10664560616434e+001dB,7.26443989254372e+001°)	(-4.03087338216675e-001dB,-1.62385416251173e+001°)	(-4.03087338216676e-001dB,-1.62385416251173e+001°)	(-1.10664560616446e+001dB,7.26443989254371e+001°)
4.54651741293532e+008	(-1.08106036356142e+001dB,7.21656152332653e+001°)	(-4.26166026284716e-001dB,-1.67381709801586e+001°)	(-4.26166026284717e-001dB,-1.67381709801586e+001°)	(-1.08106036356159e+001dB,7.21656152332653e+001°)
4.68828358208955e+008	(-1.05636918116602e+001dB,7.16877455608472e+001°)	(-4.49863921031688e-001dB,-1.72357982494054e+001°)	(-4.49863921031687e-001dB,-1.72357982494054e+001°)	(-1.05636918116606e+001dB,7.16877455608472e+001°)
4.83004975124378e+008	(-1.03252109743695e+001dB,7.12109176940103e+001°)	(-4.74174646008431e-001dB,-1.77313815317910e+001°)	(-4.74174646008428e-001dB,-1.77313815317910e+001°)	(-1.03252109743699e+001dB,7.12109176940103e+001°)
4.97181592039801e+008	(-1.00946950312838e+001dB,7.07352489031283e+001°)	(-4.99091699458288e-001dB,-1.82248802552535e+001°)	(-4.99091699458289e-001dB,-1.82248802552535e+001°)	(-1.00946950312846e+001dB,7.07352489031283e+001°)
5.11358208955223e+008	(-9.87171651439068e+000dB,7.02608471453176e+001°)	(-5.24608464708022e-001dB,-1.87162551868597e+001°)	(-5.24608464708021e-001dB,-1.87162551868597e+001°)	(-9.87171651439178e+000dB,7.02608471453177e+001°)
5.25534825870646e+008	(-9.65588235235671e+000dB,6.97878120799912e+001°)	(-5.50718220139413e-001dB,-1.92054684407117e+001°)	(-5.50718220139415e-001dB,-1.92054684407117e+001°)	(-9.65588235235679e+000dB,6.97878120799912e+001°)
5.39711442786069e+008	(-9.44683020634846e+000dB,6.93162359313215e+001°)	(-5.77414148781522e-001dB,-1.96924834837071e+001°)	(-5.77414148781522e-001dB,-1.96924834837071e+001°)	(-9.44683020635001e+000dB,6.93162359313215e+001°)
5.53888059701492e+008	(-9.24422528176087e+000dB,6.88462042245991e+001°)	(-6.04689347564301e-001dB,-2.01772651392388e+001°)	(-6.04689347564301e-001dB,-2.01772651392388e+001°)	(-9.24422528176106e+000dB,6.88462042245992e+001°)
5.68064676616915e+008	(-9.04775754362598e+000dB,6.83777964179094e+001°)	(-6.32536836246208e-001dB,-2.06597795888817e+001°)	(-6.32536836246208e-001dB,-2.06597795888817e+001°)	(-9.04775754362642e+000dB,6.83777964179095e+001°)
5.82241293532338e+008	(-8.85713927602301e+000dB,6.79110864469173e+001°)	(-6.60949566055239e-001dB,-2.11399943721735e+001°)	(-6.60949566055235e-001dB,-2.11399943721735e+001°)	(-8.85713927602421e+000dB,6.79110864469173e+001°)
5.96417910447761e+008	(-8.67210293577257e+000dB,6.74461431967933e+001°)	(-6.89920428044596e-001dB,-2.16178783845353e+001°)	(-6.89920428044595e-001dB,-2.16178783845354e+001°)	(-8.67210293577398e+000dB,6.74461431967933e+001°)
6.10594527363184e+008	(-8.49239925892972e+000dB,6.69830309130656e+001°)	(-7.19442261184172e-001dB,-2.20934018734193e+001°)	(-7.19442261184175e-001dB,-2.20934018734193e+001°)	(-8.49239925893032e+000dB,6.69830309130656e+001°)
6.24771144278607e+008	(-8.31779558523094e+000dB,6.65218095609460e+001°)	(-7.49507860194853e-001dB,-2.25665364327524e+001°)	(-7.49507860194848e-001dB,-2.25665364327524e+001°)	(-8.31779558523208e+000dB,6.65218095609460e+001°)
6.38947761194030e+008	(-8.14807437113799e+000dB,6.60625351411095e+001°)	(-7.80109983138482e-001dB,-2.30372549957606e+001°)	(-7.80109983138482e-001dB,-2.30372549957606e+001°)	(-8.14807437113897e+000dB,6.60625351411095e+001°)
6.53124378109452e+008	(-7.98303186660214e+000dB,6.56052599684025e+001°)	(-8.11241358761955e-001dB,-2.35055318262307e+001°)	(-8.11241358761955e-001dB,-2.35055318262307e+001°)	(-7.98303186660244e+000dB,6.56052599684024e+001°)
6.67300995024875e+008	(-7.82247693444484e+000dB,6.51500329190318e+001°)	(-8.42894693606764e-001dB,-2.39713425082994e+001°)	(-8.42894693606765e-001dB,-2.39713425082994e+001°)	(-7.82247693444640e+000dB,6.51500329190318e+001°)
6.81477611940298e+008	(-7.66622999434313e+000dB,6.46968996508107e+001°)	(-8.75062678888722e-001dB,-2.44346639348449e+001°)	(-8.75062678888721e-001dB,-2.44346639348449e+001°)	(-7.66622999434460e+000dB,6.46968996508107e+001°)
6.95654228855721e+008	(-7.51412207598088e+000dB,6.42459028002096e+001°)	(-9.07737997142663e-001dB,-2.48954742945387e+001°)	(-9.07737997142662e-001dB,-2.48954742945387e+001°)	(-7.51412207598170e+000dB,6.42459028002097e+001°)
7.09830845771144e+008	(-7.36599396815167e+000dB,6.37970821595543e+001°)	(-9.40913328644851e-001dB,-2.53537530576530e+001°)	(-9.40913328644851e-001dB,-2.53537530576530e+001°)	(-7.36599396815267e+000dB,6.37970821595542e+001°)
7.24007462686567e+008	(-7.22169545239454e+000dB,6.33504748370422e+001°)	(-9.74581357610711e-001dB,-2.58094809606893e+001°)	(-9.74581357610712e-001dB,-2.58094809606894e+001°)	(-7.22169545239458e+000dB,6.33504748370422e+001°)
7.38184079601990e+008	(-7.08108461129413e+000dB,6.29061154018650e+001°)	(-1.00873477816680e+000dB,-2.62626399898934e+001°)	(-1.00873477816680e+000dB,-2.62626399898934e+001°)	(-7.08108461129472e+000dB,6.29061154018650e+001°)
7.52360696517413e+008	(-6.94402720292161e+000dB,6.24640360164701e+001°)	(-1.04336630010681e+000dB,-2.67132133637478e+001°)	(-1.04336630010681e+000dB,-2.67132133637478e+001°)	(-6.94402720292284e+000dB,6.24640360164701e+001°)
7.66537313432836e+008	(-6.81039609396371e+000dB,6.20242665575557e+001°)	(-1.07846865442522e+000dB,-2.71611855144966e+001°)	(-1.07846865442522e+000dB,-2.71611855144966e+001°)	(-6.81039609396445e+000dB,6.20242665575556e+001°)
7.80713930348259e+008	(-6.68007074507406e+000dB,6.15868347272568e+001°)	(-1.11403459863342e+000dB,-2.76065420687784e+001°)	(-1.11403459863342e+000dB,-2.76065420687784e+001°)	(-6.68007074507565e+000dB,6.15868347272567e+001°)
7.94890547263682e+008	(-6.55293674279809e+000dB,6.11517661557812e+001°)	(-1.15005692186540e+000dB,-2.80492698274504e+001°)	(-1.15005692186540e+000dB,-2.80492698274504e+001°)	(-6.55293674279801e+000dB,6.11517661557813e+001°)
8.09067164179105e+008	(-6.42888537307958e+000dB,6.07190844964325e+001°)	(-1.18652844976166e+000dB,-2.84893567446421e+001°)	(-1.18652844976166e+000dB,-2.84893567446420e+001°)	(-6.42888537308050e+000dB,6.07190844964325e+001°)
8.23243781094527e+008	(-6.30781323204107e+000dB,6.02888115140715e+001°)	(-1.22344204915250e+000dB,-2.89267919061470e+001°)	(-1.22344204915251e+000dB,-2.89267919061470e+001°)	(-6.30781323204253e+000dB,6.02888115140715e+001°)
8.37420398009950e+008	(-6.18962187015212e+000dB,5.98609671676298e+001°)	(-1.26079063252307e+000dB,-2.93615655071758e+001°)	(-1.26079063252307e+000dB,-2.93615655071758e+001°)	(-6.18962187015378e+000dB,5.98609671676299e+001°)
8.51597014925373e+008	(-6.07421746643850e+000dB,5.94355696874549e+001°)	(-1.29856716227683e+000dB,-2.97936688295638e+001°)	(-1.29856716227683e+000dB,-2.97936688295638e+001°)	(-6.07421746643930e+000dB,5.94355696874549e+001°)
8.65773631840796e+008	(-5.96151052972131e+000dB,5.90126356480053e+001°)	(-1.33676465479320e+000dB,-3.02230942184815e+001°)	(-1.33676465479320e+000dB,-3.02230942184815e+001°)	(-5.96151052972151e+000dB,5.90126356480053e+001°)
8.79950248756219e+008	(-5.85141562424377e+000dB,5.85921800364201e+001°)	(-1.37537618428534e+000dB,-3.06498350587143e+001°)	(-1.37537618428534e+000dB,-3.06498350587143e+001°)	(-5.85141562424506e+000dB,5.85921800364201e+001°)
8.94126865671642e+008	(-5.74385111732962e+000dB,5.81742163173862e+001°)	(-1.41439488646087e+000dB,-3.10738857505695e+001°)	(-1.41439488646087e+000dB,-3.10738857505695e+001°)	(-5.74385111733055e+000dB,5.81742163173861e+001°)
9.08303482587065e+008	(-5.63873894696520e+000dB,5.77587564946460e+001°)	(-1.45381396198362e+000dB,-3.14952416854553e+001°)	(-1.45381396198361e+000dB,-3.14952416854554e+001°)	(-5.63873894696566e+000dB,5.77587564946460e+001°)
9.22480099502488e+008	(-5.53600440746073e+000dB,5.73458111695270e+001°)	(-1.49362667974851e+000dB,-3.19138992212062e+001°)	(-1.49362667974851e+000dB,-3.19138992212062e+001°)	(-5.53600440746119e+000dB,5.73458111695270e+001°)
9.36656716417911e+008	(-5.43557595150693e+000dB,5.69353895967291e+001°)	(-1.53382637996657e+000dB,-3.23298556571902e+001°)	(-1.53382637996657e+000dB,-3.23298556571902e+001°)	(-5.43557595150822e+000dB,5.69353895967292e+001°)
9.50833333333334e+008	(-5.33738500714391e+000dB,5.65274997376405e+001°)	(-1.57440647706759e+000dB,-3.27431092092592e+001°)	(-1.57440647706759e+000dB,-3.27431092092592e+001°)	(-5.33738500714414e+000dB,5.65274997376405e+001°)
9.65009950248757e+008	(-5.24136580829233e+000dB,5.61221483113606e+001°)	(-1.61536046241825e+000dB,-3.31536589845739e+001°)	(-1.61536046241825e+000dB,-3.31536589845739e+001°)	(-5.24136580829281e+000dB,5.61221483113607e+001°)
9.79186567164180e+008	(-5.14745523767379e+000dB,5.57193408436791e+001°)	(-1.65668190687094e+000dB,-3.35615049563763e+001°)	(-1.65668190687094e+000dB,-3.35615049563763e+001°)	(-5.14745523767513e+000dB,5.57193408436791e+001°)
9.93363184079602e+008	(-5.05559268101609e+000dB,5.53190817141120e+001°)	(-1.69836446313648e+000dB,-3.39666479387271e+001°)	(-1.69836446313649e+000dB,-3.39666479387271e+001°)	(-5.05559268101647e+000dB,5.53190817141120e+001°)
1.00753980099503e+009	(-4.96571989157932e+000dB,5.49213742011569e+001°)	(-1.74040186798828e+000dB,-3.43690895612568e+001°)	(-1.74040186798828e+000dB,-3.43690895612568e+001°)	(-4.96571989157949e+000dB,5.49213742011569e+001°)
1.02171641791045e+009	(-4.87778086414251e+000dB,5.45262205259209e+001°)	(-1.78278794430780e+000dB,-3.47688322439829e+001°)	(-1.78278794430780e+000dB,-3.47688322439829e+001°)	(-4.87778086414359e+000dB,5.45262205259209e+001°)
1.03589303482587e+009	(-4.79172171764419e+000dB,5.41336218941964e+001°)	(-1.82551660296969e+000dB,-3.51658791722158e+001°)	(-1.82551660296969e+000dB,-3.51658791722158e+001°)	(-4.79172171764444e+000dB,5.41336218941964e+001°)
1.05006965174129e+009	(-4.70749058575790e+000dB,5.37435785370766e+001°)	(-1.86858184456940e+000dB,-3.55602342715832e+001°)	(-1.86858184456940e+000dB,-3.55602342715832e+001°)	(-4.70749058575971e+000dB,5.37435785370766e+001°)
1.06424626865672e+009	(-4.62503751478696e+000dB,5.33560897502517e+001°)	(-1.91197776101031e+000dB,-3.59519021832359e+001°)	(-1.91197776101030e+000dB,-3.59519021832359e+001°)	(-4.62503751478765e+000dB,5.33560897502517e+001°)
1.07842288557214e+009	(-4.54431436824083e+000dB,5.29711539319691e+001°)	(-1.95569853693482e+000dB,-3.63408882392178e+001°)	(-1.95569853693481e+000dB,-3.63408882392178e+001°)	(-4.54431436824219e+000dB,5.29711539319691e+001°)
1.09259950248756e+009	(-4.46527473761930e+000dB,5.25887686198293e+001°)	(-1.99973845102774e+000dB,-3.67271984380840e+001°)	(-1.99973845102774e+000dB,-3.67271984380840e+001°)	(-4.46527473762070e+000dB,5.25887686198293e+001°)
1.10677611940299e+009	(-4.38787385886889e+000dB,5.22089305263840e+001°)	(-2.04409187717584e+000dB,-3.71108394207447e+001°)	(-2.04409187717584e+000dB,-3.71108394207447e+001°)	(-4.38787385886961e+000dB,5.22089305263840e+001°)
1.12095273631841e+009	(-4.31206853410196e+000dB,5.18316355736456e+001°)	(-2.08875328550106e+000dB,-3.74918184465897e+001°)	(-2.08875328550106e+000dB,-3.74918184465898e+001°)	(-4.31206853410281e+000dB,5.18316355736456e+001°)
1.13512935323383e+009	(-4.23781705817054e+000dB,5.14568789265414e+001°)	(-2.13371724326939e+000dB,-3.78701433699095e+001°)	(-2.13371724326938e+000dB,-3.78701433699095e+001°)	(-4.23781705817174e+000dB,5.14568789265414e+001°)
1.14930597014925e+009	(-4.16507914972170e+000dB,5.10846550253424e+001°)	(-2.17897841567718e+000dB,-3.82458226166271e+001°)	(-2.17897841567717e+000dB,-3.82458226166271e+001°)	(-4.16507914972287e+000dB,5.10846550253424e+001°)
1.16348258706468e+009	(-4.09381588640614e+000dB,5.07149576171172e+001°)	(-2.22453156652235e+000dB,-3.86188651613661e+001°)	(-2.22453156652234e+000dB,-3.86188651613661e+001°)	(-4.09381588640741e+000dB,5.07149576171172e+001°)
1.17765920398010e+009	(-4.02398964393575e+000dB,5.03477797862442e+001°)	(-2.27037155876539e+000dB,-3.89892805048734e+001°)	(-2.27037155876539e+000dB,-3.89892805048734e+001°)	(-4.02398964393731e+000dB,5.03477797862442e+001°)
1.19183582089552e+009	(-3.95556403870849e+000dB,4.99831139840119e+001°)	(-2.31649335498439e+000dB,-3.93570786518103e+001°)	(-2.31649335498439e+000dB,-3.93570786518103e+001°)	(-3.95556403870843e+000dB,4.99831139840119e+001°)
1.20601243781095e+009	(-3.88850387373522e+000dB,4.96209520573224e+001°)	(-2.36289201772456e+000dB,-3.97222700889177e+001°)	(-2.36289201772456e+000dB,-3.97222700889177e+001°)	(-3.88850387373649e+000dB,4.96209520573224e+001°)
1.22018905472637e+009	(-3.82277508766426e+000dB,4.92612852765669e+001°)	(-2.40956270975972e+000dB,-4.00848657635971e+001°)	(-2.40956270975972e+000dB,-4.00848657635971e+001°)	(-3.82277508766525e+000dB,4.92612852765669e+001°)
1.23436567164179e+009	(-3.75834470663908e+000dB,4.89041043626298e+001°)	(-2.45650069424994e+000dB,-4.04448770628721e+001°)	(-2.45650069424994e+000dB,-4.04448770628721e+001°)	(-3.75834470664057e+000dB,4.89041043626298e+001°)
