! Coilcraft 0805HT-10N Chip Inductor				
! 24 June 2002			
# MHZ S MA R 50
!Freq             MagS11           AngS11           MagS21           AngS21           MagS12           AngS12           MagS22           AngS22
1                0.00120543641    30.9947377       0.998966875      -0.0356031828    0.998966875      -0.0356031828    0.00120543641    30.9947377       
15.21            0.00959811965    79.1986214       0.998245788      -0.54114578      0.998245788      -0.54114578      0.00959811965    79.1986214       
29.42            0.0183763426     82.502617        0.997768594      -1.04627825      0.997768594      -1.04627825      0.0183763426     82.502617        
43.63            0.0271686467     83.5090792       0.997294106      -1.55105625      0.997294106      -1.55105625      0.0271686467     83.5090792       
57.84            0.0359590459     83.8433086       0.996784827      -2.05546652      0.996784827      -2.05546652      0.0359590459     83.8433086       
72.05            0.0447426874     83.882834        0.996225963      -2.55947788      0.996225963      -2.55947788      0.0447426874     83.882834        
86.26            0.0535168627     83.7648562       0.995609972      -3.06305113      0.995609972      -3.06305113      0.0535168627     83.7648562       
100.47           0.062279517      83.5520216       0.994932474      -3.5661428       0.994932474      -3.5661428       0.062279517      83.5520216       
114.68           0.0710288497     83.2772996       0.994190738      -4.06870683      0.994190738      -4.06870683      0.0710288497     83.2772996       
128.89           0.0797631777     82.959826        0.993382996      -4.57069559      0.993382996      -4.57069559      0.0797631777     82.959826        
143.1            0.0884808808     82.6115356       0.992508087      -5.07206046      0.992508087      -5.07206046      0.0884808808     82.6115356       
157.31           0.097180378      82.240296        0.991565268      -5.57275222      0.991565268      -5.57275222      0.097180378      82.240296        
171.52           0.105860116      81.8515272       0.990554089      -6.07272132      0.990554089      -6.07272132      0.105860116      81.8515272       
185.73           0.114518566      81.4490998       0.989474323      -6.57191809      0.989474323      -6.57191809      0.114518566      81.4490998       
199.94           0.12315422       81.0358625       0.988325914      -7.0702929       0.988325914      -7.0702929       0.12315422       81.0358625       
214.15           0.131765588      80.613966        0.987108942      -7.56779627      0.987108942      -7.56779627      0.131765588      80.613966        
228.36           0.140351206      80.1850705       0.9858236        -8.064379        0.9858236        -8.064379        0.140351206      80.1850705       
242.57           0.148909627      79.7504823       0.984470177      -8.55999223      0.984470177      -8.55999223      0.148909627      79.7504823       
256.78           0.157439429      79.3112472       0.983049042      -9.05458752      0.983049042      -9.05458752      0.157439429      79.3112472       
270.99           0.165939212      78.8682151       0.981560635      -9.54811692      0.981560635      -9.54811692      0.165939212      78.8682151       
285.2            0.174407602      78.4220865       0.980005457      -10.040533       0.980005457      -10.040533       0.174407602      78.4220865       
299.41           0.18284325       77.9734455       0.978384068      -10.531789       0.978384068      -10.531789       0.18284325       77.9734455       
313.62           0.191244831      77.5227853       0.976697077      -11.0218388      0.976697077      -11.0218388      0.191244831      77.5227853       
327.83           0.199611051      77.070526        0.974945137      -11.5106368      0.974945137      -11.5106368      0.199611051      77.070526        
342.04           0.207940642      76.6170296       0.973128945      -11.9981383      0.973128945      -11.9981383      0.207940642      76.6170296       
356.25           0.216232366      76.1626099       0.971249236      -12.4842992      0.971249236      -12.4842992      0.216232366      76.1626099       
370.46           0.224485014      75.7075418       0.969306781      -12.9690765      0.969306781      -12.9690765      0.224485014      75.7075418       
384.67           0.23269741       75.2520676       0.967302382      -13.4524276      0.967302382      -13.4524276      0.23269741       75.2520676       
398.88           0.240868405      74.7964025       0.965236873      -13.934311       0.965236873      -13.934311       0.240868405      74.7964025       
413.09           0.248996887      74.3407385       0.963111115      -14.414686       0.963111115      -14.414686       0.248996887      74.3407385       
427.3            0.257081772      73.8852482       0.960925996      -14.8935128      0.960925996      -14.8935128      0.257081772      73.8852482       
441.51           0.265122012      73.4300875       0.958682426      -15.3707526      0.958682426      -15.3707526      0.265122012      73.4300875       
455.72           0.273116591      72.975398        0.956381338      -15.8463673      0.956381338      -15.8463673      0.273116591      72.975398        
469.93           0.281064527      72.5213084       0.954023687      -16.32032        0.954023687      -16.32032        0.281064527      72.5213084       
484.14           0.288964872      72.0679369       0.951610443      -16.7925745      0.951610443      -16.7925745      0.288964872      72.0679369       
498.35           0.296816712      71.615392        0.949142597      -17.2630959      0.949142597      -17.2630959      0.296816712      71.615392        
512.56           0.30461917       71.1637735       0.946621153      -17.7318499      0.946621153      -17.7318499      0.30461917       71.1637735       
526.77           0.3123714        70.7131739       0.94404713       -18.1988035      0.94404713       -18.1988035      0.3123714        70.7131739       
540.98           0.320072592      70.2636788       0.941421558      -18.6639245      0.941421558      -18.6639245      0.320072592      70.2636788       
555.19           0.327721972      69.8153679       0.93874548       -19.1271819      0.93874548       -19.1271819      0.327721972      69.8153679       
569.4            0.335318801      69.3683151       0.936019948      -19.5885456      0.936019948      -19.5885456      0.335318801      69.3683151       
583.61           0.342862372      68.9225898       0.933246022      -20.0479864      0.933246022      -20.0479864      0.342862372      68.9225898       
597.82           0.350352016      68.4782565       0.930424771      -20.5054763      0.930424771      -20.5054763      0.350352016      68.4782565       
612.03           0.357787096      68.0353756       0.927557269      -20.9609882      0.927557269      -20.9609882      0.357787096      68.0353756       
626.24           0.36516701       67.5940039       0.924644593      -21.4144962      0.924644593      -21.4144962      0.36516701       67.5940039       
640.45           0.372491192      67.1541945       0.921687827      -21.8659751      0.921687827      -21.8659751      0.372491192      67.1541945       
654.66           0.379759106      66.7159971       0.918688055      -22.3154011      0.918688055      -22.3154011      0.379759106      66.7159971       
668.87           0.386970254      66.2794587       0.915646364      -22.7627511      0.915646364      -22.7627511      0.386970254      66.2794587       
683.08           0.394124167      65.8446233       0.912563841      -23.2080031      0.912563841      -23.2080031      0.394124167      65.8446233       
697.29           0.401220411      65.4115321       0.909441573      -23.6511362      0.909441573      -23.6511362      0.401220411      65.4115321       
711.5            0.408258584      64.980224        0.906280643      -24.0921303      0.906280643      -24.0921303      0.408258584      64.980224        
725.71           0.415238316      64.5507355       0.903082136      -24.5309664      0.903082136      -24.5309664      0.415238316      64.5507355       
739.92           0.422159269      64.1231008       0.899847129      -24.9676265      0.899847129      -24.9676265      0.422159269      64.1231008       
754.13           0.429021134      63.6973521       0.896576698      -25.4020936      0.896576698      -25.4020936      0.429021134      63.6973521       
768.34           0.435823634      63.2735196       0.893271913      -25.8343515      0.893271913      -25.8343515      0.435823634      63.2735196       
782.55           0.442566523      62.8516316       0.889933838      -26.264385       0.889933838      -26.264385       0.442566523      62.8516316       
796.76           0.449249581      62.4317145       0.886563531      -26.69218        0.886563531      -26.69218        0.449249581      62.4317145       
810.97           0.45587262       62.0137931       0.883162042      -27.117723       0.883162042      -27.117723       0.45587262       62.0137931       
825.18           0.462435479      61.5978906       0.879730414      -27.5410017      0.879730414      -27.5410017      0.462435479      61.5978906       
839.39           0.468938023      61.1840283       0.876269681      -27.9620046      0.876269681      -27.9620046      0.468938023      61.1840283       
853.6            0.475380146      60.7722265       0.872780867      -28.380721       0.872780867      -28.380721       0.475380146      60.7722265       
867.81           0.481761767      60.3625037       0.869264987      -28.7971412      0.869264987      -28.7971412      0.481761767      60.3625037       
882.02           0.488082832      59.9548771       0.865723047      -29.2112563      0.865723047      -29.2112563      0.488082832      59.9548771       
896.23           0.494343311      59.5493626       0.862156039      -29.623058       0.862156039      -29.623058       0.494343311      59.5493626       
910.44           0.500543198      59.1459748       0.858564946      -30.0325393      0.858564946      -30.0325393      0.500543198      59.1459748       
924.65           0.50668251       58.7447271       0.854950739      -30.4396936      0.854950739      -30.4396936      0.50668251       58.7447271       
938.86           0.512761289      58.3456317       0.851314377      -30.8445152      0.851314377      -30.8445152      0.512761289      58.3456317       
953.07           0.518779597      57.9486997       0.847656805      -31.2469992      0.847656805      -31.2469992      0.518779597      57.9486997       
967.28           0.524737519      57.5539409       0.843978956      -31.6471416      0.843978956      -31.6471416      0.524737519      57.5539409       
981.49           0.530635161      57.1613644       0.84028175       -32.0449387      0.84028175       -32.0449387      0.530635161      57.1613644       
995.7            0.536472649      56.770978        0.836566094      -32.4403879      0.836566094      -32.4403879      0.536472649      56.770978        
1009.91          0.542250126      56.3827886       0.832832878      -32.8334873      0.832832878      -32.8334873      0.542250126      56.3827886       
1024.12          0.547967758      55.9968022       0.829082983      -33.2242355      0.829082983      -33.2242355      0.547967758      55.9968022       
1038.33          0.553625726      55.6130238       0.825317271      -33.6126318      0.825317271      -33.6126318      0.553625726      55.6130238       
1052.54          0.55922423       55.2314577       0.821536591      -33.9986762      0.821536591      -33.9986762      0.55922423       55.2314577       
1066.75          0.564763486      54.8521071       0.81774178       -34.3823693      0.81774178       -34.3823693      0.564763486      54.8521071       
1080.96          0.570243726      54.4749746       0.813933655      -34.7637123      0.813933655      -34.7637123      0.570243726      54.4749746       
1095.17          0.575665199      54.1000619       0.810113023      -35.1427071      0.810113023      -35.1427071      0.575665199      54.1000619       
1109.38          0.581028167      53.72737         0.806280673      -35.5193561      0.806280673      -35.5193561      0.581028167      53.72737         
1123.59          0.586332908      53.356899        0.802437379      -35.8936622      0.802437379      -35.8936622      0.586332908      53.356899        
1137.8           0.59157971       52.9886486       0.798583902      -36.2656289      0.798583902      -36.2656289      0.59157971       52.9886486       
1152.01          0.59676888       52.6226177       0.794720985      -36.6352602      0.794720985      -36.6352602      0.59676888       52.6226177       
1166.22          0.601900731      52.2588043       0.790849357      -37.0025607      0.790849357      -37.0025607      0.601900731      52.2588043       
1180.43          0.606975591      51.8972062       0.786969731      -37.3675353      0.786969731      -37.3675353      0.606975591      51.8972062       
1194.64          0.6119938        51.5378203       0.783082806      -37.7301896      0.783082806      -37.7301896      0.6119938        51.5378203       
1208.85          0.616955707      51.180643        0.779189266      -38.0905295      0.779189266      -38.0905295      0.616955707      51.180643        
1223.06          0.62186167       50.8256702       0.775289777      -38.4485613      0.775289777      -38.4485613      0.62186167       50.8256702       
1237.27          0.626712059      50.4728972       0.771384992      -38.804292       0.771384992      -38.804292       0.626712059      50.4728972       
1251.48          0.631507252      50.1223187       0.767475549      -39.1577287      0.767475549      -39.1577287      0.631507252      50.1223187       
1265.69          0.636247634      49.7739292       0.763562071      -39.508879       0.763562071      -39.508879       0.636247634      49.7739292       
1279.9           0.640933599      49.4277225       0.759645165      -39.8577509      0.759645165      -39.8577509      0.640933599      49.4277225       
1294.11          0.64556555       49.0836919       0.755725423      -40.2043527      0.755725423      -40.2043527      0.64556555       49.0836919       
1308.32          0.650143893      48.7418305       0.751803423      -40.5486932      0.751803423      -40.5486932      0.650143893      48.7418305       
1322.53          0.654669045      48.4021307       0.74787973       -40.8907814      0.74787973       -40.8907814      0.654669045      48.4021307       
1336.74          0.659141425      48.0645848       0.743954892      -41.2306266      0.743954892      -41.2306266      0.659141425      48.0645848       
1350.95          0.663561461      47.7291845       0.740029444      -41.5682384      0.740029444      -41.5682384      0.663561461      47.7291845       
1365.16          0.667929582      47.3959212       0.736103906      -41.9036269      0.736103906      -41.9036269      0.667929582      47.3959212       
1379.37          0.672246225      47.0647861       0.732178786      -42.2368021      0.732178786      -42.2368021      0.672246225      47.0647861       
1393.58          0.676511831      46.7357699       0.728254574      -42.5677746      0.728254574      -42.5677746      0.676511831      46.7357699       
1407.79          0.680726843      46.4088629       0.724331752      -42.8965551      0.724331752      -42.8965551      0.680726843      46.4088629       
1422             0.684891709      46.0840555       0.720410784      -43.2231545      0.720410784      -43.2231545      0.684891709      46.0840555       
1436.21          0.689006879      45.7613374       0.716492122      -43.547584       0.716492122      -43.547584       0.689006879      45.7613374       
1450.42          0.693072806      45.4406982       0.712576207      -43.8698551      0.712576207      -43.8698551      0.693072806      45.4406982       
1464.63          0.697089947      45.1221274       0.708663463      -44.1899792      0.708663463      -44.1899792      0.697089947      45.1221274       
1478.84          0.70105876       44.8056139       0.704754306      -44.5079682      0.704754306      -44.5079682      0.70105876       44.8056139       
1493.05          0.704979702      44.4911467       0.700849135      -44.823834       0.700849135      -44.823834       0.704979702      44.4911467       
1507.26          0.708853237      44.1787145       0.69694834       -45.1375887      0.69694834       -45.1375887      0.708853237      44.1787145       
1521.47          0.712679824      43.8683058       0.693052298      -45.4492447      0.693052298      -45.4492447      0.712679824      43.8683058       
1535.68          0.716459928      43.5599088       0.689161372      -45.7588142      0.689161372      -45.7588142      0.716459928      43.5599088       
1549.89          0.720194012      43.2535116       0.685275917      -46.0663099      0.685275917      -46.0663099      0.720194012      43.2535116       
1564.1           0.72388254       42.9491022       0.681396274      -46.3717445      0.681396274      -46.3717445      0.72388254       42.9491022       
1578.31          0.727525975      42.6466685       0.677522773      -46.6751306      0.677522773      -46.6751306      0.727525975      42.6466685       
1592.52          0.73112478       42.346198        0.673655734      -46.9764813      0.673655734      -46.9764813      0.73112478       42.346198        
1606.73          0.73467942       42.0476782       0.669795465      -47.2758095      0.669795465      -47.2758095      0.73467942       42.0476782       
1620.94          0.738190356      41.7510966       0.665942264      -47.5731282      0.665942264      -47.5731282      0.738190356      41.7510966       
1635.15          0.741658049      41.4564405       0.662096419      -47.8684507      0.662096419      -47.8684507      0.741658049      41.4564405       
1649.36          0.745082962      41.163697        0.658258207      -48.1617901      0.658258207      -48.1617901      0.745082962      41.163697        
1663.57          0.748465552      40.8728532       0.654427894      -48.4531598      0.654427894      -48.4531598      0.748465552      40.8728532       
1677.78          0.751806278      40.5838962       0.65060574       -48.742573       0.65060574       -48.742573       0.751806278      40.5838962       
1691.99          0.755105595      40.2968128       0.646791991      -49.0300432      0.646791991      -49.0300432      0.755105595      40.2968128       
1706.2           0.758363959      40.0115899       0.642986886      -49.3155837      0.642986886      -49.3155837      0.758363959      40.0115899       
1720.41          0.761581821      39.7282143       0.639190656      -49.5992081      0.639190656      -49.5992081      0.761581821      39.7282143       
1734.62          0.764759632      39.4466727       0.63540352       -49.8809298      0.63540352       -49.8809298      0.764759632      39.4466727       
1748.83          0.76789784       39.1669518       0.63162569       -50.1607624      0.63162569       -50.1607624      0.76789784       39.1669518       
1763.04          0.770996891      38.8890383       0.627857369      -50.4387193      0.627857369      -50.4387193      0.770996891      38.8890383       
1777.25          0.774057228      38.6129188       0.624098754      -50.714814       0.624098754      -50.714814       0.774057228      38.6129188       
1791.46          0.777079292      38.3385798       0.62035003       -50.9890602      0.62035003       -50.9890602      0.777079292      38.3385798       
