Freq.	S11(v1)	S12(v1)	S21(v1)	S22(v1)
1.00000000000000e+006	2.20551885903864e-003,6.25550304473109e-004	9.97794481141002e-001,-6.25550304493703e-004	9.97794481141001e-001,-6.25550304493706e-004	2.20551885903886e-003,6.25550304472963e-004
1.00925288607668e+006	2.20690478377450e-003,6.31336701159154e-004	9.97793095216541e-001,-6.31336701117657e-004	9.97793095216541e-001,-6.31336701117660e-004	2.20690478377561e-003,6.31336701158936e-004
1.01859138805412e+006	2.20829720341720e-003,6.37176614245835e-004	9.97791702796702e-001,-6.37176614306009e-004	9.97791702796702e-001,-6.37176614306008e-004	2.20829720341786e-003,6.37176614245416e-004
1.02801629812647e+006	2.20969615006728e-003,6.43070538763798e-004	9.97790303849912e-001,-6.43070538709723e-004	9.97790303849912e-001,-6.43070538709723e-004	2.20969615006705e-003,6.43070538764058e-004
1.03752841581801e+006	2.21110165582838e-003,6.49018973957141e-004	9.97788898344236e-001,-6.49018973915522e-004	9.97788898344236e-001,-6.49018973915524e-004	2.21110165582816e-003,6.49018973957233e-004
1.04712854805090e+006	2.21251375263654e-003,6.55022423858522e-004	9.97787486247204e-001,-6.55022423952705e-004	9.97787486247204e-001,-6.55022423952706e-004	2.21251375263520e-003,6.55022423858309e-004
1.05681750921366e+006	2.21393247334056e-003,6.61081397382820e-004	9.97786067526893e-001,-6.61081397285946e-004	9.97786067526893e-001,-6.61081397285944e-004	2.21393247334123e-003,6.61081397382941e-004
1.06659612123026e+006	2.21535784982208e-003,6.67196407569162e-004	9.97784642150035e-001,-6.67196407660420e-004	9.97784642150034e-001,-6.67196407660421e-004	2.21535784982163e-003,6.67196407568951e-004
1.07646521362984e+006	2.21678991568530e-003,6.73367972874757e-004	9.97783210084712e-001,-6.73367972892860e-004	9.97783210084712e-001,-6.73367972892863e-004	2.21678991568686e-003,6.73367972874141e-004
1.08642562361707e+006	2.21822870282473e-003,6.79596616056963e-004	9.97781771296915e-001,-6.79596616077719e-004	9.97781771296915e-001,-6.79596616077719e-004	2.21822870282362e-003,6.79596616057231e-004
1.09647819614319e+006	2.21967424535352e-003,6.85882864941763e-004	9.97780325754476e-001,-6.85882864909258e-004	9.97780325754477e-001,-6.85882864909258e-004	2.21967424535263e-003,6.85882864942139e-004
1.10662378397767e+006	2.22112657624574e-003,6.92227252190191e-004	9.97778873423699e-001,-6.92227252001096e-004	9.97778873423700e-001,-6.92227252001097e-004	2.22112657624551e-003,6.92227252191100e-004
1.11686324778056e+006	2.22258572888445e-003,6.98630315084613e-004	9.97777414270909e-001,-6.98630315193292e-004	9.97777414270909e-001,-6.98630315193296e-004	2.22258572888334e-003,6.98630315084423e-004
1.12719745617551e+006	2.22405173704976e-003,7.05092596590949e-004	9.97775948262437e-001,-7.05092596576580e-004	9.97775948262437e-001,-7.05092596576580e-004	2.22405173704776e-003,7.05092596591749e-004
1.13762728582343e+006	2.22552463504155e-003,7.11614643945482e-004	9.97774475364739e-001,-7.11614644003974e-004	9.97774475364739e-001,-7.11614644003975e-004	2.22552463504089e-003,7.11614643945546e-004
1.14815362149688e+006	2.22700445670876e-003,7.18197009934058e-004	9.97772995543418e-001,-7.18197009897378e-004	9.97772995543418e-001,-7.18197009897380e-004	2.22700445670876e-003,7.18197009934042e-004
1.15877735615513e+006	2.22849123618563e-003,7.24840252188874e-004	9.97771508763966e-001,-7.24840252048639e-004	9.97771508763966e-001,-7.24840252048641e-004	2.22849123618607e-003,7.24840252189281e-004
1.16949939101987e+006	2.22998500809179e-003,7.31544933455819e-004	9.97770014991950e-001,-7.31544933445898e-004	9.97770014991950e-001,-7.31544933445896e-004	2.22998500809179e-003,7.31544933455795e-004
1.18032063565173e+006	2.23148580720500e-003,7.38311622036316e-004	9.97768514192689e-001,-7.38311621924721e-004	9.97768514192689e-001,-7.38311621924719e-004	2.23148580720478e-003,7.38311622036963e-004
1.19124200802738e+006	2.23299366856744e-003,7.45140891037391e-004	9.97767006331353e-001,-7.45140891017877e-004	9.97767006331352e-001,-7.45140891017878e-004	2.23299366856722e-003,7.45140891037591e-004
1.20226443461741e+006	2.23450862720087e-003,7.52033319211591e-004	9.97765491372674e-001,-7.52033319208444e-004	9.97765491372674e-001,-7.52033319208445e-004	2.23450862720043e-003,7.52033319211793e-004
1.21338885046498e+006	2.23603071866374e-003,7.58989490474338e-004	9.97763969281504e-001,-7.58989490513543e-004	9.97763969281504e-001,-7.58989490513541e-004	2.23603071866441e-003,7.58989490473910e-004
1.22461619926505e+006	2.23755997833286e-003,7.66009994211389e-004	9.97762440022087e-001,-7.66009994273434e-004	9.97762440022087e-001,-7.66009994273433e-004	2.23755997833419e-003,7.66009994210463e-004
1.23594743344451e+006	2.23909644156506e-003,7.73095425324907e-004	9.97760903558219e-001,-7.73095425205378e-004	9.97760903558219e-001,-7.73095425205376e-004	2.23909644156395e-003,7.73095425325771e-004
1.24738351424295e+006	2.24064014529346e-003,7.80246383888438e-004	9.97759359854847e-001,-7.80246383853546e-004	9.97759359854847e-001,-7.80246383853543e-004	2.24064014529413e-003,7.80246383888368e-004
1.25892541179417e+006	2.24219112498103e-003,7.87463475929872e-004	9.97757808875004e-001,-7.87463475899601e-004	9.97757808875004e-001,-7.87463475899600e-004	2.24219112498081e-003,7.87463475930026e-004
1.27057410520854e+006	2.24374941753491e-003,7.94747312827250e-004	9.97756250582735e-001,-7.94747312876845e-004	9.97756250582735e-001,-7.94747312876846e-004	2.24374941753580e-003,7.94747312826598e-004
1.28233058265602e+006	2.24531505907311e-003,8.02098511785911e-004	9.97754684940850e-001,-8.02098511791096e-004	9.97754684940850e-001,-8.02098511791096e-004	2.24531505907244e-003,8.02098511786012e-004
1.29419584144999e+006	2.24688808709805e-003,8.09517695540569e-004	9.97753111913097e-001,-8.09517695528003e-004	9.97753111913098e-001,-8.09517695527999e-004	2.24688808709850e-003,8.09517695540308e-004
1.30617088813184e+006	2.24846853826910e-003,8.17005492611286e-004	9.97751531461932e-001,-8.17005492697957e-004	9.97751531461932e-001,-8.17005492697958e-004	2.24846853826999e-003,8.17005492610562e-004
1.31825673855641e+006	2.25005644994392e-003,8.24562537488931e-004	9.97749943550049e-001,-8.24562537558822e-004	9.97749943550048e-001,-8.24562537558826e-004	2.25005644994347e-003,8.24562537488638e-004
1.33045441797809e+006	2.25165186002152e-003,8.32189470370679e-004	9.97748348140229e-001,-8.32189470388977e-004	9.97748348140229e-001,-8.32189470388976e-004	2.25165186002241e-003,8.32189470370177e-004
1.34276496113787e+006	2.25325480580985e-003,8.39886937376627e-004	9.97746745194194e-001,-8.39886937376299e-004	9.97746745194195e-001,-8.39886937376297e-004	2.25325480580940e-003,8.39886937376614e-004
1.35518941235104e+006	2.25486532577301e-003,8.47655590648354e-004	9.97745134674361e-001,-8.47655590631670e-004	9.97745134674361e-001,-8.47655590631668e-004	2.25486532577346e-003,8.47655590648193e-004
1.36772882559585e+006	2.25648345789087e-003,8.55496088297845e-004	9.97743516542181e-001,-8.55496088348061e-004	9.97743516542181e-001,-8.55496088348058e-004	2.25648345789065e-003,8.55496088297496e-004
1.38038426460289e+006	2.25810924077585e-003,8.63409094635566e-004	9.97741890759268e-001,-8.63409094684882e-004	9.97741890759268e-001,-8.63409094684883e-004	2.25810924077541e-003,8.63409094635272e-004
1.39315680294531e+006	2.25974271314788e-003,8.71395280036537e-004	9.97740257286860e-001,-8.71395280014223e-004	9.97740257286860e-001,-8.71395280014224e-004	2.25974271314788e-003,8.71395280036621e-004
1.40604752412992e+006	2.26138391388542e-003,8.79455320986173e-004	9.97738616085866e-001,-8.79455320988483e-004	9.97738616085866e-001,-8.79455320988485e-004	2.26138391388453e-003,8.79455320986609e-004
1.41905752168910e+006	2.26303288253482e-003,8.87589900349746e-004	9.97736967117375e-001,-8.87589900385347e-004	9.97736967117375e-001,-8.87589900385347e-004	2.26303288253438e-003,8.87589900349752e-004
1.43218789927355e+006	2.26468965820836e-003,8.95799707323708e-004	9.97735310341545e-001,-8.95799707270402e-004	9.97735310341545e-001,-8.95799707270405e-004	2.26468965820770e-003,8.95799707324397e-004
1.44543977074593e+006	2.26635428090671e-003,9.04085437311553e-004	9.97733645718923e-001,-9.04085437241042e-004	9.97733645718923e-001,-9.04085437241042e-004	2.26635428090605e-003,9.04085437312185e-004
1.45881426027535e+006	2.26802679046356e-003,9.12447792229152e-004	9.97731973209384e-001,-9.12447792235726e-004	9.97731973209384e-001,-9.12447792235725e-004	2.26802679046334e-003,9.12447792229406e-004
1.47231250243272e+006	2.26970722715425e-003,9.20887480597895e-004	9.97730292772735e-001,-9.20887480560501e-004	9.97730292772735e-001,-9.20887480560500e-004	2.26970722715381e-003,9.20887480598270e-004
1.48593564228701e+006	2.27139563148193e-003,9.29405217279790e-004	9.97728604368497e-001,-9.29405217274771e-004	9.97728604368496e-001,-9.29405217274772e-004	2.27139563148171e-003,9.29405217279855e-004
1.49968483550238e+006	2.27309204416581e-003,9.38001723876799e-004	9.97726907955885e-001,-9.38001723911319e-004	9.97726907955884e-001,-9.38001723911320e-004	2.27309204416604e-003,9.38001723876560e-004
1.51356124843621e+006	2.27479650615670e-003,9.46677728644062e-004	9.97725203493822e-001,-9.46677728685809e-004	9.97725203493822e-001,-9.46677728685810e-004	2.27479650615670e-003,9.46677728643915e-004
1.52756605823808e+006	2.27650905890187e-003,9.55433966581258e-004	9.97723490941199e-001,-9.55433966528888e-004	9.97723490941199e-001,-9.55433966528890e-004	2.27650905890231e-003,9.55433966581322e-004
1.54170045294957e+006	2.27822974347980e-003,9.64271179341014e-004	9.97721770255999e-001,-9.64271179301199e-004	9.97721770256000e-001,-9.64271179301199e-004	2.27822974347780e-003,9.64271179342207e-004
1.55596563160508e+006	2.27995860256969e-003,9.73190115595242e-004	9.97720041397272e-001,-9.73190115554762e-004	9.97720041397272e-001,-9.73190115554764e-004	2.27995860256924e-003,9.73190115595736e-004
1.57036280433356e+006	2.28169567764391e-003,9.82191530799695e-004	9.97718304322307e-001,-9.82191530891036e-004	9.97718304322307e-001,-9.82191530891038e-004	2.28169567764347e-003,9.82191530799385e-004
1.58489319246112e+006	2.28344101114475e-003,9.91276187694388e-004	9.97716558988815e-001,-9.91276187590447e-004	9.97716558988815e-001,-9.91276187590448e-004	2.28344101114430e-003,9.91276187694937e-004
1.59955802861468e+006	2.28519464575583e-003,1.00044485554941e-003	9.97714805354193e-001,-1.00044485549778e-003	9.97714805354193e-001,-1.00044485549778e-003	2.28519464575561e-003,1.00044485554974e-003
1.61435855682649e+006	2.28695662437128e-003,1.00969831118327e-003	9.97713043375481e-001,-1.00969831112958e-003	9.97713043375481e-001,-1.00969831112958e-003	2.28695662437017e-003,1.00969831118383e-003
1.62929603263973e+006	2.28872699033200e-003,1.01903733834709e-003	9.97711273009602e-001,-1.01903733842491e-003	9.97711273009602e-001,-1.01903733842491e-003	2.28872699033156e-003,1.01903733834687e-003
1.64437172321494e+006	2.29050578714296e-003,1.02846272825497e-003	9.97709494213066e-001,-1.02846272834473e-003	9.97709494213066e-001,-1.02846272834473e-003	2.29050578714340e-003,1.02846272825413e-003
1.65958690743757e+006	2.29229305827716e-003,1.03797527931931e-003	9.97707706941771e-001,-1.03797527927148e-003	9.97707706941770e-001,-1.03797527927148e-003	2.29229305827761e-003,1.03797527931944e-003
1.67494287602645e+006	2.29408884805804e-003,1.04757579720214e-003	9.97705911151878e-001,-1.04757579709462e-003	9.97705911151877e-001,-1.04757579709462e-003	2.29408884805782e-003,1.04757579720277e-003
1.69044093164327e+006	2.29589320104839e-003,1.05726509512262e-003	9.97704106799197e-001,-1.05726509503703e-003	9.97704106799197e-001,-1.05726509503703e-003	2.29589320104906e-003,1.05726509512248e-003
1.70608238900313e+006	2.29770616147085e-003,1.06704399381082e-003	9.97702293838599e-001,-1.06704399383797e-003	9.97702293838599e-001,-1.06704399383797e-003	2.29770616147085e-003,1.06704399381055e-003
1.72186857498602e+006	2.29952777452702e-003,1.07691332173897e-003	9.97700472225327e-001,-1.07691332166268e-003	9.97700472225327e-001,-1.07691332166268e-003	2.29952777452636e-003,1.07691332173964e-003
1.73780082874938e+006	2.30135808561771e-003,1.08687391463200e-003	9.97698641914214e-001,-1.08687391473273e-003	9.97698641914214e-001,-1.08687391473273e-003	2.30135808561660e-003,1.08687391463191e-003
1.75388050184177e+006	2.30319714023985e-003,1.09692661644124e-003	9.97696802859571e-001,-1.09692661648934e-003	9.97696802859571e-001,-1.09692661648934e-003	2.30319714023941e-003,1.09692661644144e-003
1.77010895831743e+006	2.30504498439088e-003,1.10707227850897e-003	9.97694955015583e-001,-1.10707227857644e-003	9.97694955015584e-001,-1.10707227857643e-003	2.30504498439066e-003,1.10707227850870e-003
1.78648757485206e+006	2.30690166402714e-003,1.11731176027393e-003	9.97693098335766e-001,-1.11731176027497e-003	9.97693098335766e-001,-1.11731176027497e-003	2.30690166402603e-003,1.11731176027440e-003
1.80301774085958e+006	2.30876722601248e-003,1.12764592897022e-003	9.97691232773904e-001,-1.12764592895320e-003	9.97691232773904e-001,-1.12764592895320e-003	2.30876722601270e-003,1.12764592897049e-003
1.81970085860999e+006	2.31064171701023e-003,1.13807565988688e-003	9.97689358282934e-001,-1.13807565995030e-003	9.97689358282934e-001,-1.13807565995030e-003	2.31064171700957e-003,1.13807565988672e-003
1.83653834334836e+006	2.31252518415448e-003,1.14860183655119e-003	9.97687474815615e-001,-1.14860183654204e-003	9.97687474815616e-001,-1.14860183654204e-003	2.31252518415315e-003,1.14860183655178e-003
1.85353162341482e+006	2.31441767518392e-003,1.15922535042216e-003	9.97685582324653e-001,-1.15922535039872e-003	9.97685582324653e-001,-1.15922535039872e-003	2.31441767518303e-003,1.15922535042266e-003
1.87068214036581e+006	2.31631923796627e-003,1.16994710133123e-003	9.97683680762213e-001,-1.16994710129236e-003	9.97683680762213e-001,-1.16994710129236e-003	2.31631923796716e-003,1.16994710133099e-003
1.88799134909630e+006	2.31822992028174e-003,1.18076799735005e-003	9.97681770079700e-001,-1.18076799738144e-003	9.97681770079699e-001,-1.18076799738144e-003	2.31822992028130e-003,1.18076799734997e-003
1.90546071796326e+006	2.32014977101858e-003,1.19168895511046e-003	9.97679850228948e-001,-1.19168895504617e-003	9.97679850228949e-001,-1.19168895504617e-003	2.32014977101791e-003,1.19168895511084e-003
1.92309172891017e+006	2.32207883896107e-003,1.20271089944415e-003	9.97677921161000e-001,-1.20271089940278e-003	9.97677921161001e-001,-1.20271089940278e-003	2.32207883896063e-003,1.20271089944444e-003
1.94088587759279e+006	2.32401717338115e-003,1.21383476383114e-003	9.97675982826688e-001,-1.21383476401119e-003	9.97675982826688e-001,-1.21383476401119e-003	2.32401717338115e-003,1.21383476383013e-003
1.95884467350600e+006	2.32596482360248e-003,1.22506149070796e-003	9.97674035176192e-001,-1.22506149072238e-003	9.97674035176193e-001,-1.22506149072238e-003	2.32596482360137e-003,1.22506149070840e-003
1.97696964011187e+006	2.32792183986152e-003,1.23639203068050e-003	9.97672078159897e-001,-1.23639203063097e-003	9.97672078159897e-001,-1.23639203063097e-003	2.32792183986041e-003,1.23639203068133e-003
1.99526231496889e+006	2.32988827243852e-003,1.24782734340375e-003	9.97670111727507e-001,-1.24782734335029e-003	9.97670111727507e-001,-1.24782734335029e-003	2.32988827243830e-003,1.24782734340413e-003
2.01372424986240e+006	2.33186417175824e-003,1.25936839736368e-003	9.97668135828146e-001,-1.25936839739431e-003	9.97668135828146e-001,-1.25936839739431e-003	2.33186417175779e-003,1.25936839736378e-003
2.03235701093624e+006	2.33384958899996e-003,1.27101617008285e-003	9.97666150410957e-001,-1.27101617013666e-003	9.97666150410957e-001,-1.27101617013666e-003	2.33384958899974e-003,1.27101617008272e-003
2.05116217882558e+006	2.33584457547376e-003,1.28277164807377e-003	9.97664155424467e-001,-1.28277164802149e-003	9.97664155424467e-001,-1.28277164802148e-003	2.33584457547353e-003,1.28277164807416e-003
2.07014134879106e+006	2.33784918297841e-003,1.29463582677739e-003	9.97662150816942e-001,-1.29463582679319e-003	9.97662150816942e-001,-1.29463582679319e-003	2.33784918297797e-003,1.29463582677752e-003
2.08929613085405e+006	2.33986346370352e-003,1.30660971111730e-003	9.97660136536274e-001,-1.30660971110812e-003	9.97660136536274e-001,-1.30660971110812e-003	2.33986346370285e-003,1.30660971111741e-003
2.10862814993330e+006	2.34188747010045e-003,1.31869431510308e-003	9.97658112529848e-001,-1.31869431510287e-003	9.97658112529849e-001,-1.31869431510287e-003	2.34188747009978e-003,1.31869431510323e-003
2.12813904598273e+006	2.34392125515592e-003,1.33089066223252e-003	9.97656078744807e-001,-1.33089066216261e-003	9.97656078744807e-001,-1.33089066216261e-003	2.34392125515548e-003,1.33089066223295e-003
2.14783047413055e+006	2.34596487221084e-003,1.34319978529363e-003	9.97654035127856e-001,-1.34319978529290e-003	9.97654035127856e-001,-1.34319978529290e-003	2.34596487221084e-003,1.34319978529346e-003
2.16770410481971e+006	2.34801837479126e-003,1.35562272685186e-003	9.97651981625089e-001,-1.35562272680468e-003	9.97651981625089e-001,-1.35562272680468e-003	2.34801837479059e-003,1.35562272685241e-003
2.18776162394957e+006	2.35008181725016e-003,1.36816053888187e-003	9.97649918182622e-001,-1.36816053886246e-003	9.97649918182622e-001,-1.36816053886245e-003	2.35008181724972e-003,1.36816053888233e-003
2.20800473301892e+006	2.35215525403154e-003,1.38081428320608e-003	9.97647844745843e-001,-1.38081428321994e-003	9.97647844745844e-001,-1.38081428321994e-003	2.35215525403087e-003,1.38081428320638e-003
2.22843514927032e+006	2.35423874009455e-003,1.39358503145622e-003	9.97645761259832e-001,-1.39358503143955e-003	9.97645761259832e-001,-1.39358503143956e-003	2.35423874009411e-003,1.39358503145651e-003
2.24905460583580e+006	2.35633233070875e-003,1.40647386507414e-003	9.97643667669139e-001,-1.40647386507260e-003	9.97643667669140e-001,-1.40647386507260e-003	2.35633233070809e-003,1.40647386507457e-003
2.26986485188384e+006	2.35843608191733e-003,1.41948187560546e-003	9.97641563918248e-001,-1.41948187554860e-003	9.97641563918248e-001,-1.41948187554860e-003	2.35843608191821e-003,1.41948187560526e-003
2.29086765276779e+006	2.36055004951741e-003,1.43261016451667e-003	9.97639449950531e-001,-1.43261016454107e-003	9.97639449950532e-001,-1.43261016454107e-003	2.36055004951696e-003,1.43261016451644e-003
2.31206479017561e+006	2.36267429040682e-003,1.44585984367325e-003	9.97637325709607e-001,-1.44585984367751e-003	9.97637325709607e-001,-1.44585984367751e-003	2.36267429040682e-003,1.44585984367320e-003
2.33345806228102e+006	2.36480886166679e-003,1.45923203504695e-003	9.97635191138392e-001,-1.45923203501905e-003	9.97635191138392e-001,-1.45923203501905e-003	2.36480886166723e-003,1.45923203504690e-003
2.35504928389603e+006	2.36695382068319e-003,1.47272787098470e-003	9.97633046179221e-001,-1.47272787098065e-003	9.97633046179222e-001,-1.47272787098065e-003	2.36695382068275e-003,1.47272787098500e-003
2.37684028662490e+006	2.36910922560374e-003,1.48634849436999e-003	9.97630890774298e-001,-1.48634849436208e-003	9.97630890774298e-001,-1.48634849436208e-003	2.36910922560352e-003,1.48634849437031e-003
2.39883291901951e+006	2.37127513474422e-003,1.50009505857592e-003	9.97628724865078e-001,-1.50009505858674e-003	9.97628724865078e-001,-1.50009505858674e-003	2.37127513474356e-003,1.50009505857640e-003
2.42102904673620e+006	2.37345160711788e-003,1.51396872767162e-003	9.97626548392799e-001,-1.51396872769122e-003	9.97626548392798e-001,-1.51396872769122e-003	2.37345160711788e-003,1.51396872767179e-003
2.44343055269399e+006	2.37563870196800e-003,1.52797067648704e-003	9.97624361297993e-001,-1.52797067645584e-003	9.97624361297993e-001,-1.52797067645584e-003	2.37563870196800e-003,1.52797067648730e-003
2.46603933723436e+006	2.37783647917866e-003,1.54210209061923e-003	9.97622163520894e-001,-1.54210209059844e-003	9.97622163520894e-001,-1.54210209059844e-003	2.37783647917866e-003,1.54210209061911e-003
